!Keysight Technologies N9917A: A.08.18
!Date: Saturday, 27 May 2023 16:43:26
!Timezone: (GMT-07:00) Mountain Time (US & Canada)
!Model: N9917A
!Serial: MY52401314
!GPS Latitude: 
!GPS Longitude: 
!GPS TimeStamp: 0001-01-01 00:00:00Z
!GPS Seconds Since Last Read: 0
!CHECKSUM:0322258923
!Correction: S11(ON U)S21(ON U)S12(ON U)S22(ON U)
!S2P File: Measurements:S11,S21,S12,S22:
# Hz S DB R 50
30000	-4.25731926137397	-18.7648995969404	-3.93490444220812	-130.782114592705	-49.2248744920535	62.7466353679747	-8.12299115345506	-62.7065976483609	
429997	-6.21578555195235	-2.25367065806555	-1.9661837589451	-175.941788892585	-63.1966033936084	-8.16869870509125	-29.2076936051136	-90.7367718651736	
829994	-6.24318330926415	-1.74659540940674	-1.91809130277801	-177.980569394088	-65.747203196172	73.4239923390812	-33.7844797347264	-93.8826341542902	
1229991	-6.24993442069512	-1.56257897059007	-1.90053914213022	-178.870685773759	-62.6484583648649	25.2484583107339	-36.513153765191	-96.9587405586948	
1629988	-6.26103626388292	-1.57743060111546	-1.91537857649376	-179.339156233256	-74.2449509975849	-169.455377073672	-38.2836697070956	-102.907756355806	
2029985	-6.27866726418852	-1.49330790902008	-1.90710935556879	-179.793148118114	-62.3275225531812	72.6724160685935	-39.8765882771603	-111.516282158143	
2429982	-6.25995351981545	-0.922036012670393	-1.8793901415596	-179.607933833979	-65.9683769097655	-124.642635559519	-43.1878091697606	-112.785162944676	
2829979	-6.24092437679725	-1.31896051681712	-1.90209535172601	-179.915596467703	-69.3815962987394	-39.6726946959789	-44.8748674128831	-115.670104629929	
3229976	-6.27175781730194	-1.36024507806748	-1.89966966850473	179.948828928458	-76.749394097903	3.17050019415358	-47.4549806235724	-100.599656903175	
3629973	-6.24474464545581	-1.15193134298989	-1.89736474994755	179.808684109876	-64.3736975777558	-109.090608937892	-44.4265360845255	-141.313177510274	
4029970	-6.25877870614339	-1.44538548773285	-1.88122869923027	179.624595074525	-64.1962166796737	-99.7799603797294	-48.0915718566931	-103.424369335073	
4429967	-6.22833365061344	-1.194588961043	-1.88540465719996	179.504671705727	-61.1009039727718	136.952197714468	-49.2349211712974	-96.8815082176598	
4829964	-6.25751124125459	-1.51003991257537	-1.88758031897143	179.375927649002	-79.1155718683972	144.122742927474	-44.8871443119613	-107.209460777351	
5229961	-6.25004562088506	-1.70422708696203	-1.88513463186846	179.285937095148	-64.2287726675403	-77.6365909530501	-57.2847812156844	-123.916915551384	
5629958	-6.25840020407279	-1.8273881761889	-1.88919590245678	179.139555381042	-65.1142013863476	-156.101250240896	-48.4362436324401	-106.451164026528	
6029955	-6.23495251146362	-1.6324181273508	-1.88046818073738	178.985395716068	-59.7978563579149	-8.17844068517383	-53.3706292891544	-130.96126968477	
6429952	-6.27279086583304	-1.91615015584138	-1.88517682233105	178.847284990044	-62.3108448474052	152.528719377754	-49.222673032064	-118.550283464168	
6829949	-6.27137717174123	-2.06565129829608	-1.89142038903542	178.785089191485	-69.7872614827637	-78.9421138427787	-49.2973824418165	-89.0142880862706	
7229946	-6.25541387619253	-2.21857388861095	-1.88373949440467	178.541082874589	-59.4931663654409	-35.558931293414	-49.8033870907872	-104.286444218053	
7629943	-6.26842266276375	-2.3790237878844	-1.8867423877066	178.502405490783	-67.3215003056064	-54.8623074607057	-57.1774102525648	-101.084817339771	
8029940	-6.21063784901257	-2.32920496980123	-1.90053221107614	178.379680776713	-58.5220902286133	-55.4709583129449	-45.7049078322389	-108.23139260856	
8429937	-6.24226174938835	-2.4594516599818	-1.88986523778034	178.202727645168	-62.0711346180328	-50.617405357017	-48.6205785585399	-129.203271047745	
8829934	-6.25396278556881	-2.49122030859078	-1.88206485966447	178.159859694783	-76.4515888712695	-69.8171114300395	-46.6761058830803	-122.987238112608	
9229931	-6.2361207329501	-2.802384519733	-1.88830902966009	178.046768174332	-63.1537745372489	19.3735575219208	-51.9176244813396	-108.260696409557	
9629928	-6.23166821110676	-2.82153458680813	-1.87505606881127	177.948850827464	-63.5311894167864	30.4948741454773	-47.5552152174669	-91.7010269105026	
10029925	-6.23180117378239	-2.76419033544532	-1.88455412853102	177.94965689318	-67.221440622684	52.3178154714254	-47.8773610291481	-120.05112301836	
10429922	-6.22326374287441	-3.00757009407424	-1.88248239687974	177.742983651587	-62.4941699982823	92.5423338243654	-48.380422737542	-126.398865658082	
10829919	-6.22519844387887	-3.21763060489446	-1.88170116923148	177.754915022774	-65.239281599721	26.7839443912679	-47.2324690169646	-106.743895659178	
11229916	-6.2412765016342	-3.34896555399641	-1.87393719059058	177.479461635725	-70.6260335417875	-46.6787624145911	-50.1456899258371	-122.442640211478	
11629913	-6.24528021918401	-3.36710280469601	-1.89111172997742	177.351975990478	-68.3797967598344	69.7717272903223	-47.619265873851	-111.45943481052	
12029910	-6.25514713736102	-3.4385284349564	-1.885782135751	177.375490289504	-66.6101185942501	-21.8527932573581	-49.4266528215251	-113.242197930091	
12429907	-6.240641296674	-3.48593054809433	-1.87121048161981	177.230981834503	-63.8165175106022	-131.598040537469	-48.3730044210321	-95.8563206436273	
12829904	-6.21825789829955	-3.62296272980785	-1.88608919440794	177.052392342133	-62.2220119288059	-95.2776970532253	-47.45407429423	-131.407998281274	
13229901	-6.2181331794735	-3.89794662026091	-1.87838660129522	176.955891830418	-73.6212060238086	158.399074811798	-48.6663650709804	-122.102848687942	
13629898	-6.2447101976551	-3.99727692146317	-1.87174192941784	176.759679000457	-70.9883034514274	61.1559098768213	-47.1548304122787	-114.619965903453	
14029895	-6.23537676295539	-4.22902201061443	-1.87931749012516	176.749951255071	-67.3153348041482	141.981515792831	-50.2886691652585	-127.484176706757	
14429892	-6.2164710861864	-4.26924003768756	-1.88008109998665	176.62357840062	-73.7126545133217	-21.7523614368987	-51.3187242375104	-94.4424378486311	
14829889	-6.21439971515368	-4.38324694161925	-1.88501999829977	176.551573472985	-65.6062635690269	-24.1118799913664	-51.3902995617655	-85.6204170416085	
15229886	-6.21875199348922	-4.48963569480659	-1.8962460534179	176.412333108179	-63.194858057115	-85.492073745471	-49.2239862029598	-78.4294427431752	
15629883	-6.24200641061107	-4.33918320827373	-1.88938936196477	176.436743634717	-65.95936616893	19.5506719348836	-48.7396818120322	-85.1699912719619	
16029880	-6.22440193582876	-4.67955198863827	-1.87653380837636	176.145212260113	-65.5725316638056	-165.248460983583	-51.4870594980901	-76.2073719265487	
16429877	-6.2134552044837	-4.69369751767636	-1.88356859753857	176.141553006202	-65.608518080879	7.05328420454558	-49.7468295977753	-68.2823138541224	
16829874	-6.19947013318239	-4.88148000583753	-1.89482432864614	175.998217023749	-63.6553458491962	149.946224303847	-49.8429681101318	-105.323224760288	
17229871	-6.21416212716446	-4.78494835363744	-1.88884218229959	175.980110844494	-70.464911026625	92.3976387648591	-48.1217411310995	-82.4696595441543	
17629868	-6.18668371939922	-4.82729401181686	-1.87736423900146	175.900138886083	-61.9199044724766	109.044688682338	-53.4122340622814	-50.4655522361511	
18029865	-6.20003677931652	-5.2163791352159	-1.89640749745976	175.843144192899	-73.1628552314276	-76.3955981287241	-47.509436056407	-72.914006967145	
18429862	-6.22124225766176	-5.0725369064169	-1.87416306154143	175.594880218756	-69.9367492682329	-143.459637079938	-48.512474870406	-87.4008843206059	
18829859	-6.19780129262204	-5.31755640774558	-1.88478883169157	175.448673231198	-65.9000320614528	128.482778195406	-48.3060171656076	-62.2929724768571	
19229856	-6.19798752886882	-5.42932397050511	-1.87790237078621	175.492188566687	-65.3717642544117	160.634408868437	-47.4938753565436	-39.6567273892597	
19629853	-6.19067316982674	-5.51582971671048	-1.87937669861728	175.173625457392	-64.03949873047	-41.9326838432076	-48.2259970664319	-84.470607594965	
20029850	-6.19749483980105	-5.6535567600037	-1.85985792204137	175.334741873211	-61.8301490957067	60.3514611364492	-46.7913463247027	-57.8971694934839	
20429847	-6.18181442834968	-5.64263868992087	-1.88058210312038	175.1352087794	-65.6826376397833	169.310003040068	-49.7896721914977	-110.239055140015	
20829844	-6.18378300881282	-5.81619494535807	-1.8896280451402	174.974961288857	-60.6717168188687	126.267796599935	-47.2825260050031	-80.7665051352755	
21229841	-6.2069843253067	-6.04403788367401	-1.89882438248299	174.832802609887	-70.1775863872684	-1.40196362985148	-49.1491895351325	-79.8141860533371	
21629838	-6.20928245680439	-5.94453562249228	-1.87501781105469	174.811743866341	-60.4528601023947	-173.626868865658	-49.2719592967051	-66.7461053917043	
22029835	-6.20201539892647	-6.17531345234089	-1.90687269780015	174.789071695683	-60.7098270906656	21.9750467053153	-44.8755566260391	-68.4609208498978	
22429832	-6.18510914713161	-6.3748096435393	-1.87532308731102	174.624380597497	-71.4530921005814	-133.638604282576	-48.289285882544	-83.0629718553393	
22829829	-6.16443351421348	-6.08711755673345	-1.87928025194887	174.447618061067	-62.3987775117823	-125.728383018378	-52.7859811715568	-71.957271977739	
23229826	-6.18418568280043	-6.54595938915589	-1.88804870394699	174.42898801626	-66.2469203960059	100.086028671706	-49.1587359323077	-49.4852019139913	
23629823	-6.16974672714995	-6.48345635203839	-1.88747977253786	174.330035990426	-60.3336792577175	-60.179787871496	-46.8857638371197	-72.8218856065117	
24029820	-6.18629257905403	-6.82139833244602	-1.87333002837646	174.204347687343	-60.5202197657257	-106.509797123026	-45.9543559532341	-47.8757916864343	
24429817	-6.18904549376145	-6.68592145829722	-1.8798141431466	174.187304846983	-64.1267455583067	175.055674515573	-49.7503614441906	-33.4382117913467	
24829814	-6.1713247025634	-7.14790606203824	-1.89396117890409	173.953436758161	-67.3608695777178	-24.7107736644089	-48.9939745742508	-43.5936291799067	
25229811	-6.1678235825322	-6.91313980634419	-1.86684939536732	173.967113013276	-64.1704293207826	176.84526325386	-46.2692555598563	-47.9322365324261	
25629808	-6.14426813017944	-7.10528765449693	-1.89614474277031	173.806615589053	-79.1004899271273	-127.301920342744	-47.7213572370612	-65.2384093836007	
26029805	-6.14499461272108	-7.2267793863715	-1.8845205929043	173.63449525303	-65.6201549439346	85.7336905061722	-47.0627480162939	-47.7483429889316	
26429802	-6.17354738065733	-7.36580935413462	-1.87657701818474	173.452990700735	-64.7852153879809	-107.406725967379	-45.3845494700497	-63.7364318086395	
26829799	-6.13300024390989	-7.45578498533824	-1.87887041415666	173.472578485287	-63.8284532017945	117.421686751844	-48.3063731984209	-47.670493699109	
27229796	-6.16105751354598	-7.36546967037355	-1.87853671108634	173.362496182497	-75.1978387135914	-66.1513894963473	-43.968058049046	-51.9726189642311	
27629793	-6.15540909742803	-7.67484616955427	-1.88507433206019	173.239972263525	-71.9980010225596	81.1235817308644	-46.4375508973834	-65.7844599642466	
28029790	-6.12350615198027	-7.61429318960167	-1.87615006727115	173.250017756844	-62.2266460569455	51.2577980895988	-45.9527943192173	-51.8699816401509	
28429787	-6.14206309397091	-7.68668087524382	-1.89871518682658	173.019960556464	-61.8956944192709	-120.987188242937	-44.6902999210032	-43.6873623370929	
28829784	-6.10700949846659	-7.87674004753054	-1.88771391048168	172.924932943697	-63.2613188233235	131.290430578392	-46.1349510974724	-23.1445103856308	
29229781	-6.13143030926675	-8.01371822941379	-1.89234203334548	172.784424290392	-64.6663768409514	56.2120342842283	-46.3512008302309	-46.044446782608	
29629778	-6.12216428613119	-8.14386689387884	-1.88877111862033	172.751347773066	-61.4953995110216	-21.6667763128407	-43.333965946293	-47.9372945324949	
30029775	-6.15160935765926	-8.06081637649713	-1.89302068724206	172.632187443929	-67.2124013237377	-168.560521905929	-44.2380217792703	-30.5965209875256	
30429772	-6.12422241101838	-8.26369763951321	-1.90448732766156	172.455681244959	-77.356435130571	42.3043531329882	-46.337369458313	-32.5154218209752	
30829769	-6.13961434930888	-8.46980508196505	-1.90447826158841	172.415811153916	-63.8096033080996	103.347044297312	-45.0994419935755	-25.8916138273283	
31229766	-6.1376252529543	-8.53066815491082	-1.91361072669445	172.382098737095	-77.9638756451033	-63.2773390835325	-44.8730757772205	-37.993805001213	
31629763	-6.11330706004419	-8.61055884219166	-1.89735060307969	172.169912979469	-59.7676113816791	55.9365293254979	-42.768669351038	-35.7297342220502	
32029760	-6.10374164486562	-8.52974236394755	-1.89593104496465	172.109025361392	-75.9824999420827	107.769553219033	-43.1123534273458	-42.6557770570922	
32429757	-6.10916354905661	-8.81150799408851	-1.90223867776238	171.995067361014	-61.55135489935	130.228834666091	-43.7861039813431	-47.0310703775873	
32829754	-6.11190991480069	-8.95735400290133	-1.896576399714	171.845042565791	-67.0577095185543	-123.625500395948	-44.3507533853754	-44.5251948830444	
33229751	-6.11654144462941	-9.05946890938427	-1.89629743003406	171.655978016575	-86.9444437491052	-41.0304365885228	-43.1768705792432	-41.8309225238597	
33629748	-6.09633385778704	-8.85015847347687	-1.89732356032189	171.575068165351	-65.9094657153301	26.5898312490817	-41.9961887694858	-33.2637670764586	
34029745	-6.09081030097778	-9.0948912626591	-1.90800164597806	171.572417586487	-58.7269771509266	-165.994495771197	-43.7570512279688	-34.4355418343973	
34429742	-6.12974121113879	-9.26991234185721	-1.91595508558182	171.412664657338	-58.4366433334205	68.4989198430423	-43.6509354132773	-24.2861591519336	
34829739	-6.10248695935718	-9.32313542837282	-1.88786402060936	171.319936458726	-64.8052394869309	-35.861585039269	-45.5104412780728	-43.7970715299501	
35229736	-6.09651029981096	-9.48066191975644	-1.89738451501168	171.220958439854	-58.7134645097159	19.9034175390357	-42.7857473829259	-37.9998850122795	
35629733	-6.07095568645272	-9.40330892020495	-1.91630897328081	171.073925015229	-60.9498137280915	45.725932970434	-43.2374187970221	-25.6099608471368	
36029730	-6.09647548449128	-9.23431885916727	-1.92014544035212	171.064328570916	-75.3405267465912	167.543166745722	-44.5915932756111	-21.0150263744731	
36429727	-6.07893483442285	-9.59471856816416	-1.90186449110205	170.982551044022	-72.8379443779001	167.614075381844	-43.1370791474321	-19.6691044795611	
36829724	-6.10003143113935	-9.64224705329697	-1.90130911938855	170.819842323664	-61.5298186738437	6.49320574947981	-41.9653840022319	-14.3820763080887	
37229721	-6.10356560650495	-9.70401543800974	-1.90879273606982	170.761440173306	-60.2100406298797	18.7130121574233	-42.5772055436162	-17.1165705446724	
37629718	-6.09248167568375	-9.82806324764149	-1.91337984866931	170.608256582136	-59.5200170654572	-95.6312750769489	-43.2009170026285	-26.2273253490866	
38029715	-6.08252081797124	-9.93947310594261	-1.91666949482773	170.451889719258	-60.8224082237082	128.908962596602	-40.8988521425489	-24.0234912489454	
38429712	-6.07837548204087	-9.96285145829193	-1.91042953929204	170.428209028379	-63.2790542739923	-172.131336337201	-42.1239752193326	-13.4285734549174	
38829709	-6.07573262253198	-9.97654472565869	-1.90334485104932	170.36646079453	-71.2867204769912	-92.5360877488349	-41.5632737713933	-19.2222155138898	
39229706	-6.08596145944996	-10.2392944056132	-1.91381922523502	170.164738708569	-64.3684938494017	-107.46485952712	-40.2121199021552	-21.9063357285339	
39629703	-6.06466620010528	-10.3213753121714	-1.91586229452752	170.147740387328	-56.0156958811216	24.409718974803	-41.2594377396998	-24.1962667612233	
40029700	-6.08132498231772	-10.3434650190261	-1.91369521120223	169.760641163406	-66.9517628473627	158.23290712321	-42.5906277883172	-21.1008499674681	
40429697	-6.06104667680064	-10.5593684675813	-1.91633890960419	169.90160703364	-55.4221088510122	-54.2932776751172	-41.194494452927	-12.7752247750888	
40829694	-6.07480346608376	-10.5044869803899	-1.90233994112052	169.576344132864	-66.2949426339342	42.399547525281	-40.5525394773376	-9.41606488894406	
41229691	-6.08113187181862	-10.5400581932747	-1.91989533034662	169.519270555977	-63.7302520286379	-134.497893657166	-40.2996611783057	-23.1350241635111	
41629688	-6.05999109623064	-10.6236032879799	-1.92813327080508	169.470146541971	-62.770602005156	-29.5177145192659	-42.224446016137	-23.778645527792	
42029685	-6.03849250985569	-10.789034099591	-1.91595956479603	169.411905064546	-60.3104666264824	71.0472027554959	-39.8522578028821	-16.9907359325725	
42429682	-6.04868343979736	-10.8753262646493	-1.9236153325517	169.312302782476	-63.1595394971239	99.510269267437	-40.6481111940456	-12.95558470327	
42829679	-6.04179817596257	-10.9308751222477	-1.91670905135948	169.129295500437	-67.9035834628089	81.4614348434016	-40.2089075378779	-6.20268817803016	
43229676	-6.04644626974171	-10.7708844112071	-1.91485949779466	169.054586535555	-58.1687139618702	-147.641018591809	-39.9146890335679	-9.98460636905572	
43629673	-6.0718959413542	-11.2578451766815	-1.92484781022135	168.936701702236	-75.1696558218597	131.737827585983	-40.1916828639515	-14.251935621624	
44029670	-6.04957324079721	-11.0802416516109	-1.9161972238954	168.820653075895	-61.8591278416471	-43.3643278480394	-39.9098331059799	-7.88875891519861	
44429667	-6.06326546412657	-11.2639036466705	-1.93907752479949	168.661047620769	-59.2950408196418	158.902485669097	-40.5225937622458	-8.07228544564998	
44829664	-6.04630938326567	-11.4489352920006	-1.92149105406275	168.554852745484	-59.521190426627	-115.762544094948	-41.9558658247825	-6.39047356890806	
45229661	-6.01908875344229	-11.3930954627939	-1.92541782176865	168.608884688828	-68.146314232526	-164.727092036184	-39.7159500358675	-3.35721327389961	
45629658	-6.04454102524377	-11.6819604653128	-1.93962952858355	168.38603342899	-68.721860571062	-7.48394229789354	-41.2201061372716	-1.38229028701055	
46029655	-6.03975069414829	-11.626102829629	-1.92974396123282	168.274793365831	-63.8589965147092	-24.9192542985538	-40.3532366527599	1.60176923003891	
46429652	-6.05373158309802	-11.5995108551477	-1.93763660947151	168.126897632962	-60.4768265666565	-154.526383549516	-40.2530903019349	-3.58166424538018	
46829649	-6.03675415541417	-11.6254623920022	-1.94569494185792	168.091666456963	-63.1611638112053	-168.218705159868	-39.5529878702512	0.327865179170214	
47229646	-6.04316484627511	-11.9245586186364	-1.92895381798594	167.904810694278	-61.2383349572632	121.666990459475	-39.1755001724813	-4.67750957339822	
47629643	-6.02010512025326	-12.0513147803225	-1.94761403126495	167.889797434459	-59.3524875687689	-12.6366147228421	-39.5637019342438	-7.63428923104315	
48029640	-6.02765651507869	-12.0136759838505	-1.94879232676566	167.661729103878	-78.8619154891699	153.195215481439	-38.8766749804802	2.29004727633972	
48429637	-6.01616767566537	-12.0701921987231	-1.92957146308165	167.67974241978	-64.5948151795027	107.561661812465	-39.5775875151043	-2.87731826809899	
48829634	-6.0067848363789	-12.1615739445664	-1.95133726168718	167.595636052348	-62.9527720457568	-142.289681112528	-39.0717569627177	3.86443675437607	
49229631	-6.0213830719487	-12.1181250997069	-1.93476081015189	167.435589259684	-62.2643345009513	-161.052156726694	-39.6422092959262	1.81539447975028	
49629628	-6.02461469069688	-12.1836879348162	-1.93552977440076	167.296702815832	-66.9654943976152	35.7445000453268	-38.5991879144255	-2.90845568777253	
50029625	-6.03631019800928	-12.3441906888307	-1.93329624315182	167.179125011733	-66.2275153331922	105.46452866736	-38.7622278304503	0.844629910918214	
50429622	-6.0382663908663	-12.3896912378717	-1.94958629386261	167.139556683746	-63.777626887048	-146.421077714458	-38.650300650776	7.37475295319994	
50829619	-6.02312516981082	-12.5218768661884	-1.95014895012346	166.937065962236	-66.5816201272072	108.725093111161	-39.1407433916945	-2.98715564576674	
