!Keysight Technologies N9917A: A.08.18
!Date: Saturday, 27 May 2023 16:37:40
!Timezone: (GMT-07:00) Mountain Time (US & Canada)
!Model: N9917A
!Serial: MY52401314
!GPS Latitude: 
!GPS Longitude: 
!GPS TimeStamp: 0001-01-01 00:00:00Z
!GPS Seconds Since Last Read: 0
!CHECKSUM:1471271935
!Correction: S11(ON U)S21(ON U)S12(ON U)S22(ON U)
!S2P File: Measurements:S11,S21,S12,S22:
# Hz S DB R 50
30000	-4.24749629054487	-19.1167381575718	-3.86657669596726	49.4611888209716	-51.2549436797089	73.5386961092485	-8.19610121086849	-62.3537416022651	
429997	-6.22582986764649	-2.27354510014191	-1.93668755375431	4.20456595111189	-62.5393087570265	69.0335776017292	-29.1691200785842	-94.4782236248137	
829994	-6.25057977666617	-1.75381387717128	-1.89505224167977	2.16836486104685	-75.1697484450499	30.9877179438676	-34.1376178064442	-99.5746648325873	
1229991	-6.25639120413052	-1.64031227426347	-1.88352990252548	1.27889743616663	-62.3404202635362	59.7497000617841	-36.9439489609101	-102.563836125997	
1629988	-6.2609566247076	-1.59146768292821	-1.88368693946087	0.975301543876419	-69.0004332442254	112.057369707692	-39.0052080253754	-108.713767292654	
2029985	-6.27994669397767	-1.60615915355124	-1.88243115576851	0.675094278979613	-65.6058981046405	145.20151295099	-39.2377328496999	-107.450262282298	
2429982	-6.25444149232859	-1.02067441466132	-1.85813699785833	0.886557926678254	-60.0209900887418	134.696245388184	-44.187422300497	-122.540902210814	
2829979	-6.23762724007283	-1.2045986999837	-1.88478597122174	0.758129413337615	-74.6297852044973	84.685329746317	-45.1528994567212	-122.85237423437	
3229976	-6.25676581810398	-1.24009571636798	-1.87528156488656	0.559452246641329	-62.9088259541946	-61.6683436651139	-49.5716374527947	-102.600097443142	
3629973	-6.24991008556281	-1.23039658477382	-1.87886732569425	0.576749576586684	-62.2118087342457	59.8064660340923	-45.5690283772747	-142.067436804227	
4029970	-6.2598283747262	-1.44163805410638	-1.86410094085842	0.452680620251683	-62.1371484875413	142.259028777922	-46.0389881692385	-118.012278948681	
4429967	-6.27420357172362	-1.44944623475178	-1.86628646807065	0.400583215546318	-67.1717361827221	103.215170006193	-48.5598177871957	-102.187252410592	
4829964	-6.24633163147067	-1.42283999664783	-1.86152229353951	0.385495439452813	-69.4497715340305	-144.337410550197	-47.20042828235	-109.671990681886	
5229961	-6.27313718177845	-1.64695288184127	-1.86509193846279	0.395412971793085	-58.25628662019	112.204340978382	-50.3204095427221	-126.386690784958	
5629958	-6.24633104797723	-1.83393755082749	-1.86044000449889	0.329949067634076	-61.7693099578757	-156.380433740547	-49.6216178998708	-134.78020134316	
6029955	-6.2569295972716	-1.77425428917801	-1.84405128764443	0.263663863038235	-75.5074761390603	140.804177737646	-48.1506094351923	-141.685927320509	
6429952	-6.27167538929534	-2.02426574688813	-1.8621453054754	0.267396615599195	-60.1108481325964	122.278665829178	-49.2260441708909	-119.075786492175	
6829949	-6.28741925576351	-2.02633209688238	-1.86125801130234	0.190159713225156	-59.3420161628208	55.0735478043765	-49.5908064919843	-106.987480140466	
7229946	-6.27216000301527	-2.02453891771362	-1.85282537891926	0.105305861043272	-62.7238533561986	13.1609366898194	-48.6027836420544	-136.440433875399	
7629943	-6.27569164266539	-2.36639627097401	-1.87091425108465	0.235389933220938	-60.1926322224965	134.314923886225	-49.0656580578291	-118.648091433414	
8029940	-6.22373886050362	-2.35313687331347	-1.87625852628084	0.0925949337237215	-64.8676531730784	43.95643868732	-47.2346727335555	-127.819792025697	
8429937	-6.25754262091982	-2.62839697152938	-1.86300170966493	0.0731170458785085	-67.910570320189	169.80669237812	-47.4388113753082	-129.926954363002	
8829934	-6.25023131695667	-2.45916918789275	-1.85440836689831	0.0885141361130415	-73.3320724933706	26.1394532869555	-45.5455306737612	-143.837989078099	
9229931	-6.24600339428693	-2.75679426834205	-1.85107961740623	0.0901066357732005	-78.9729324434061	-101.082275891563	-49.322665957075	-126.59440164558	
9629928	-6.23627691819657	-2.8735426955092	-1.84786905446365	0.0536408084398399	-68.230737752706	154.23992709207	-50.3528702612873	-124.813584619981	
10029925	-6.25907624505325	-2.91681619476611	-1.85505656513588	-0.00768605358275794	-65.9619038927388	16.3219618270682	-48.4035136350233	-154.62836996419	
10429922	-6.23127560138414	-3.08174556631315	-1.85514260426982	0.070843984408275	-57.9974583728777	42.4098991112689	-50.005251373546	-137.514169870337	
10829919	-6.25423816812039	-3.12807663352799	-1.838607044824	0.0213520689518261	-63.6485524151024	170.205325916574	-48.1415499504383	-127.944674543203	
11229916	-6.23989919631408	-3.34859035941808	-1.85057542748182	-0.0236438161198589	-73.104224594927	-105.558206444842	-48.3687850620862	-126.314731310018	
11629913	-6.25070688247794	-3.40190704343682	-1.84681949418864	-0.120363562580478	-65.3304853099823	30.632689232812	-47.2702884665998	-117.960122905838	
12029910	-6.23766455749929	-3.45420569879652	-1.85711220564467	0.055665997113744	-67.1199420191979	93.976378353197	-47.788963417064	-120.57372603876	
12429907	-6.26477400615461	-3.65968354547388	-1.83810643018753	-0.0975232635435311	-65.5333436828168	-106.921127502078	-47.4908031478049	-114.150464344013	
12829904	-6.22433118776528	-3.49552728292667	-1.8568329949572	-0.163383772124247	-69.7595162595523	-63.4188977575321	-47.2486502637999	-129.881608560656	
13229901	-6.26890480787076	-3.84720170972884	-1.84884091146473	-0.125829345963434	-63.5461021439435	-72.4521941267315	-46.3358492621795	-136.392483666949	
13629898	-6.24776210282754	-3.88973098123578	-1.83014966274321	-0.194374536877412	-79.1968775319599	57.5292870057311	-47.507595246836	-120.448258662396	
14029895	-6.24392930033827	-4.12870379389413	-1.84478763583426	-0.167872280337408	-68.7895659586279	128.905897236983	-47.2026523889048	-111.608763148209	
14429892	-6.21231585147489	-4.04458689796455	-1.83944057144012	-0.285783382182402	-77.7045018472821	-152.673829315226	-47.3365672502964	-97.9555972734333	
14829889	-6.19837441690994	-4.14001948566217	-1.84729705467751	-0.14538646685451	-61.3671858110578	-144.0365353606	-50.9967224925231	-103.596142192406	
15229886	-6.19868848230729	-4.58181692721766	-1.8435085623016	-0.228238891625108	-68.4664813533152	118.979361633367	-50.7097257598686	-94.0381768641844	
15629883	-6.23425828597708	-4.50704259278045	-1.86322613247094	-0.202535839492301	-59.9143235846825	-36.020265503399	-49.2745540285173	-105.420155515708	
16029880	-6.22341198723136	-4.45871778265863	-1.83590175278676	-0.170950252727881	-69.6996192632711	98.544565353164	-52.870524687926	-83.6415175924429	
16429877	-6.22481739594296	-4.65531332851046	-1.83475851183657	-0.223753900312197	-68.6924492567874	-100.639193960314	-50.7073639365161	-86.6808563155702	
16829874	-6.20344223009874	-4.73088501337559	-1.83527149932121	-0.185886506056386	-62.6169868148716	-72.0855670609995	-47.010954913935	-105.158963816556	
17229871	-6.21076922495015	-4.84072309803932	-1.83357476717476	-0.245084912819003	-66.2398060820947	-86.956661965742	-48.0460180521097	-98.6480159843436	
17629868	-6.19708908678678	-5.13055208141166	-1.83051939253049	-0.235494375434548	-64.1281982796701	65.4620060072813	-51.8940129214676	-101.428718806669	
18029865	-6.2287359925051	-5.12752551843282	-1.86228334825115	-0.272949787858135	-66.7172410100896	-144.133398194664	-48.2452615043536	-77.6313232954003	
18429862	-6.22572440415663	-5.04654555800918	-1.83427182113174	-0.405028793862106	-64.474746096367	163.959315380485	-48.6528313395421	-117.71240258684	
18829859	-6.19795213590125	-5.34211017278995	-1.83708861538878	-0.365983745156798	-67.8071620351935	-132.616492507735	-49.5727925446269	-86.8966181196703	
19229856	-6.19885502606765	-5.57743559248526	-1.84033842983284	-0.392483438549096	-61.3957538989364	29.4743580333559	-48.7959984355491	-86.3338488408026	
19629853	-6.19769416369413	-5.42852370427256	-1.83938558292793	-0.462425408529911	-59.213095918533	42.8757799205815	-52.5300656877351	-96.1876344448054	
20029850	-6.20208685523875	-5.6352371050493	-1.81545334911543	-0.377123401310509	-67.4760764874407	-129.281692095594	-48.2978677672607	-56.9527337492493	
20429847	-6.18702971841632	-5.66778089127516	-1.84408457418488	-0.376151077441153	-66.0676178316714	-17.0495264747268	-48.4298302273099	-127.321594225092	
20829844	-6.19392305002003	-5.79422689168754	-1.83181225106979	-0.423003958019441	-58.2116472604851	111.453548794208	-47.8031391748558	-85.2193648641581	
21229841	-6.1877706727258	-6.13381375629904	-1.83537729051942	-0.454755421865567	-72.0435787112431	82.5820793071021	-46.726252696903	-97.0093293291593	
21629838	-6.17662711310005	-6.04810328161299	-1.82457192659762	-0.419798625196609	-59.5924778895575	-130.576233343004	-51.1275667936797	-51.5784426590426	
22029835	-6.20096812117004	-6.08428698654605	-1.8465027169854	-0.415741392625249	-63.3257955386673	71.2938531573993	-47.1151338468259	-87.0461115129771	
22429832	-6.20252850391929	-6.24348367683229	-1.82658525958566	-0.446249509044258	-67.1410979072128	-176.723271164948	-47.3644375412578	-102.203443501509	
22829829	-6.18262107643773	-6.20725286167512	-1.84480843428689	-0.510771496234896	-68.7817949592589	89.7435583020383	-49.89348448081	-91.1502697068447	
23229826	-6.1913328046333	-6.54487598273495	-1.84476623728866	-0.524462908786357	-69.7026198730111	54.4362025256182	-50.1771234706637	-90.4781629301025	
23629823	-6.16233594954161	-6.57953685360357	-1.83704246358531	-0.496872599787459	-65.4213688910589	-49.4335719577474	-47.3383546187001	-65.5026007386902	
24029820	-6.18008624944622	-6.79693530179957	-1.82693710806445	-0.546755116478668	-68.7306915987814	4.39075609929896	-47.2868594822009	-68.8155804457137	
24429817	-6.18662096750587	-6.74204773856262	-1.82861006209571	-0.506370987531218	-84.4897496944724	168.018678331952	-48.0686868716075	-20.4825950928209	
24829814	-6.16479658128055	-6.94547719334937	-1.80863403351758	-0.437811024820812	-55.3465209707605	-75.3620358871049	-50.7390021898772	-68.6525369079852	
25229811	-6.18142928424649	-6.91578076868628	-1.80933620311273	-0.540516162033514	-65.7742834520306	41.7231613853455	-46.8507915787363	-69.6439933089112	
25629808	-6.15075635427771	-7.11673340882966	-1.82474882303992	-0.56868871906381	-59.2905099367002	16.9195994371111	-49.4239342854923	-69.7641903962923	
26029805	-6.14435456404713	-7.29484608934074	-1.82041114930201	-0.613995344033506	-66.691732222082	140.77718125078	-49.7631330497411	-49.3276788273479	
26429802	-6.1711616681803	-7.25988579755844	-1.81731530938601	-0.599773554727183	-63.9765572905444	-34.2533472196192	-49.6417184108522	-72.7415293549719	
26829799	-6.14005563846367	-7.42856880444151	-1.81418287488276	-0.619247650563029	-65.5100642758654	81.9783668195862	-47.7417254540007	-60.9131546562024	
27229796	-6.16014978488546	-7.62769649715253	-1.82624107461136	-0.640792817897235	-65.8331745780168	-135.050357340264	-46.8826597821442	-54.3277116250225	
27629793	-6.13731141532195	-7.63830121053954	-1.82139513985433	-0.551468497550265	-68.2584497405968	-119.268026758249	-50.4102192942809	-76.3186243536979	
28029790	-6.13288800105738	-7.79067333639562	-1.82198562591371	-0.708918004947072	-59.6193691808828	163.367468618756	-45.8376002260213	-71.0764693719428	
28429787	-6.1418053615146	-7.68072218554987	-1.82334958926418	-0.645631468203838	-64.6398239513464	-94.445234951868	-46.4807918316219	-52.1446368572358	
28829784	-6.1332984586397	-7.99391438343429	-1.819766915213	-0.740590260691018	-63.3915508497516	118.440777139968	-48.2331874458683	-57.1500979870386	
29229781	-6.14955993233574	-8.02203184668216	-1.82785568081725	-0.701688710661848	-66.0883792323783	-20.6578216797969	-46.7950638365944	-44.8778414608839	
29629778	-6.11961501502222	-7.96911024227581	-1.81745062717509	-0.643688887476407	-63.8117560802761	-117.629845141779	-44.6063322714061	-56.6457071224402	
30029775	-6.13993866874514	-8.08454551928802	-1.81231090563271	-0.690437618941241	-62.4355972249575	-175.133317754402	-44.1688383821884	-31.8757467709464	
30429772	-6.14422778569668	-8.23806172018378	-1.81069958178853	-0.711475547011581	-62.2557392938286	88.4998671165315	-46.4269997515865	-48.3013106843764	
30829769	-6.12244884652112	-8.52955550507675	-1.81630409955052	-0.793912981340673	-62.7513344177292	-106.775028694507	-45.8256479360694	-44.9636512429439	
31229766	-6.12469699476255	-8.53091135029309	-1.81149244709603	-0.615047796949696	-64.3740529987192	-56.8034248454305	-46.3151054130183	-51.2906638055392	
31629763	-6.12284534709116	-8.54795051528097	-1.81736982932366	-0.760437921097793	-57.3649617103943	-32.6162634711576	-46.9343259657824	-44.301233482399	
32029760	-6.09290551514719	-8.56327645965237	-1.81943468868047	-0.79377822940127	-65.1357780037721	-154.188512370804	-43.9016047324538	-50.7182820821106	
32429757	-6.08312389509435	-8.60550099073054	-1.81930198768555	-0.759906904801125	-67.2771219743128	135.34119466117	-44.3347657152155	-58.4518769079551	
32829754	-6.12377569943235	-8.94902740611296	-1.80148470320418	-0.776746436952407	-63.6051070824002	-30.6071386214886	-44.1887228326789	-52.3046692004128	
33229751	-6.12346683139574	-9.04400026119676	-1.82075209247604	-0.879018799207375	-62.9236578830807	151.893416230644	-43.2405863273907	-39.5089614326344	
33629748	-6.12384226327924	-8.99969701277331	-1.81590225339366	-0.918320354005178	-59.8883744380114	161.883917346539	-45.1762766136597	-23.7686375790217	
34029745	-6.08718536734286	-9.05300688662308	-1.79126992947539	-0.732987792705222	-80.5447586459671	118.871527303524	-44.6598598905714	-31.5713647777246	
34429742	-6.09330883499205	-9.04482996090929	-1.7901446675941	-0.810485084979634	-59.4340632952017	-131.516635466759	-45.5685167170142	-32.081536149702	
34829739	-6.10752002253269	-9.16838251357563	-1.79643486213541	-0.784118777915205	-57.953873763753	-14.1769357093055	-44.113868825503	-22.1451962894985	
35229736	-6.09202527525194	-9.53998699070863	-1.79769181979897	-0.901290564788132	-66.8862056361889	119.632244554865	-44.2478289951238	-22.6691619846778	
35629733	-6.08610673852521	-9.47504622158824	-1.81864243651994	-0.939731005552882	-66.2141363575623	148.210040260307	-45.8509340230979	-24.0777469685757	
36029730	-6.08087891167958	-9.44593818742364	-1.8068682804479	-1.00065790327658	-67.9540478372934	178.554245554897	-45.9088506319753	-27.478269203293	
36429727	-6.09912881089093	-9.65522085411158	-1.79203933976269	-0.789619070279139	-65.3696961364091	113.164084682854	-45.4429386238998	-11.059633689592	
36829724	-6.09335436873877	-9.68166555668074	-1.78522702363136	-0.945304215388983	-65.4635717567915	41.0643054876216	-42.9633026512409	-14.947749724681	
37229721	-6.09887989839712	-9.67231479617494	-1.78534051971282	-0.917434325210864	-57.9511152895822	14.8573220296609	-44.5116316339893	-15.4997349757837	
37629718	-6.08920162660151	-9.97786954000064	-1.78527879551628	-0.911301269090012	-63.9826552536308	-109.226588229973	-43.1835862984812	-15.0913340976206	
38029715	-6.0745834079378	-9.95728267445781	-1.7972328694553	-0.960906039407055	-69.6835595055764	-120.95165121184	-43.7862141227987	-26.652340847495	
38429712	-6.06963510383301	-9.99894971168425	-1.79373446870171	-1.01741040532461	-62.7573968876914	79.2145873277317	-42.5973918445161	-17.4462072714358	
38829709	-6.09520896824334	-10.0459634576942	-1.78576829045641	-0.926613086229283	-62.6917078433654	41.6545357164646	-42.9904057977395	-18.5221271559823	
39229706	-6.08161909467366	-10.24914855954	-1.79045390633741	-1.09362806080791	-60.1837579173103	-5.79255624208608	-42.0532933392755	-23.2312851371708	
39629703	-6.05705734693804	-10.2584152334901	-1.78327887159876	-0.953565560358199	-65.0811834828568	106.914632927671	-43.4854787940009	-21.7079266902337	
40029700	-6.0872349485251	-10.345941481731	-1.78042185745771	-1.14928895077344	-63.2157026869229	-143.472692900571	-43.5375254293382	-22.1024008775997	
40429697	-6.04531574870833	-10.655392705629	-1.77525913287538	-1.09317165800708	-68.6214627364364	26.7571867577114	-43.0039376270962	-14.3544581156159	
40829694	-6.06450016141296	-10.4315270896406	-1.76112722639728	-1.21262520300989	-61.7282319446356	56.435034653147	-42.1881246851425	-9.02649448302392	
41229691	-6.09495721831167	-10.5650922816797	-1.78639171991788	-1.12747783298267	-64.5257649520491	58.4677693883366	-42.9942606067657	-8.67803911899001	
41629688	-6.03917007520329	-10.6033372407118	-1.78342529278667	-1.13482564015762	-63.6875100694029	-25.8065940788562	-43.4324473697266	-22.6677300724704	
42029685	-6.02909290936226	-10.8458471087101	-1.78349628401894	-1.1026690381774	-81.9654275805629	24.6160618180658	-42.3741217327507	-9.93372716127103	
42429682	-6.07232856053019	-10.8014887884666	-1.76158204983412	-1.12713466325524	-64.4466961918299	-70.0489040320847	-40.7867577729264	-18.7048292917251	
42829679	-6.05795121468034	-10.8584453825616	-1.75832330658598	-1.13608686062518	-64.4466126361503	-25.2097321448457	-40.6450383062849	-8.45372005722601	
43229676	-6.03740434565029	-10.972441968185	-1.76731385604282	-1.09998880411259	-60.7347986847269	-87.4399623591515	-40.2388483725866	-14.5007378084671	
43629673	-6.07115896578972	-11.1235525888548	-1.76214824230308	-1.24543769258068	-56.8523683919067	95.5276694712918	-42.9580974182317	-20.4009421004182	
44029670	-6.07471428825504	-11.2414196608405	-1.76455028089707	-1.18907965040538	-65.8323495141268	-7.16278326340105	-40.7561193429732	-10.2659205506223	
44429667	-6.06547020070665	-11.1253334686349	-1.77149033257815	-1.2194135032662	-60.3051165532875	124.59693813926	-41.0493474949054	-6.71683529654037	
44829664	-6.05145603317018	-11.5121979262326	-1.76824188332788	-1.28081368483589	-61.8905152364207	-66.0144508158674	-40.9051248427767	-9.95689100004424	
45229661	-6.03359485069484	-11.5490998597743	-1.74528234093535	-1.11286978761392	-58.9472111654451	61.355081476131	-40.7351446534502	2.75913787303805	
45629658	-6.04179884477102	-11.6184044974411	-1.75671622217018	-1.22671272630621	-60.886482485722	-14.8148865511232	-42.9238588387634	-1.38368375004828	
46029655	-6.05293626993796	-11.6174279896267	-1.75879732313721	-1.36463943683579	-73.0998888868397	118.395518214515	-42.3712919382131	-10.8696033187359	
46429652	-6.04741592851204	-11.6902624736464	-1.74442724050126	-1.33905277745019	-62.549533524493	72.0200544643998	-41.5139787631013	-5.32222399431538	
46829649	-6.0344818684353	-11.8569657772842	-1.75617725835669	-1.45409602290032	-62.700969835132	7.44261994834368	-39.9035968189492	-10.8030179689094	
47229646	-6.02144167626524	-11.8793585392183	-1.74886722583985	-1.37655366729588	-67.6859159503215	151.895188528652	-39.5099104833011	3.85278608808918	
47629643	-6.03871507462916	-12.0074229383814	-1.73973534348647	-1.36205571705725	-64.0390540741959	54.6841949543495	-39.4722210280782	-6.58856638543664	
48029640	-6.03166914158063	-12.0407262136248	-1.75079627648377	-1.5492674532923	-78.8212625504631	-137.764865060686	-39.8192312932946	1.96360331042874	
48429637	-6.03871079766706	-12.0851888685812	-1.75306361340015	-1.40813434984538	-57.9831914128598	19.2603738978288	-41.1906575832061	0.22477208200366	
48829634	-6.04310369708326	-12.1126740975411	-1.74180665452216	-1.45829941125018	-58.800031302129	48.3670766347372	-39.3988160371495	9.86535015713129	
49229631	-6.02898868062813	-12.1643698842776	-1.73272295084781	-1.40390003293142	-61.7163168479872	116.67665374236	-40.5476067988469	1.47094589609935	
49629628	-6.02708811410022	-12.2281754220401	-1.74217435554989	-1.46153425868058	-63.0959603326995	-79.4396614728092	-39.0733532287279	-1.24969304532468	
50029625	-6.04246902954502	-12.325048122553	-1.74203781623807	-1.40321581548259	-58.1942324130786	-107.587766819112	-40.1334290862327	11.4424816373362	
50429622	-6.03613048729002	-12.341696836989	-1.72517202986608	-1.43382300353193	-58.5153039960101	-157.089809315206	-39.3307078752957	14.5775719351826	
