!Keysight Technologies N9917A: A.08.18
!Date: Saturday, 27 May 2023 17:02:02
!Timezone: (GMT-07:00) Mountain Time (US & Canada)
!Model: N9917A
!Serial: MY52401314
!GPS Latitude: 
!GPS Longitude: 
!GPS TimeStamp: 0001-01-01 00:00:00Z
!GPS Seconds Since Last Read: 0
!CHECKSUM:0741296098
!Correction: S11(ON U)S21(ON U)S12(ON U)S22(ON U)
!S2P File: Measurements:S11,S21,S12,S22:
# Hz S DB R 50
30000	-4.26657774552227	-19.0265584995866	-3.94394029760269	-130.627774623479	-51.9669115028072	63.8398412550138	-8.21574654391283	-62.0796170888711	
429997	-6.23596032414591	-2.3131159929287	-1.95419576175421	-176.03925426844	-62.0545771791405	153.652787231909	-29.3954340619134	-94.3373563840083	
829994	-6.26732919675453	-1.65129929540885	-1.90747853889882	-178.042652190972	-66.3383155296185	-85.7427930683824	-33.9025997362556	-100.147841693215	
1229991	-6.25607427087667	-1.54124772485883	-1.89446918899106	-178.952878869779	-61.3467399808579	53.2018306719428	-36.5866662382855	-106.57707501657	
1629988	-6.25753261321629	-1.51391514619677	-1.88990230928117	-179.421316358237	-68.6513331548841	-134.688384668969	-39.3586025804069	-109.223927245725	
2029985	-6.27563507988707	-1.54180460703857	-1.89210208095357	-179.753914538674	-69.1734633580779	-71.499328286219	-39.6429857403064	-111.32543017662	
2429982	-6.24868278266422	-1.21640057943009	-1.88984093999652	-179.688424044889	-64.7523670089718	149.132447616952	-45.1722624256389	-114.921301842956	
2829979	-6.2577416143815	-1.08588467526115	-1.90021739384184	-179.888004239091	-61.7463824622924	54.3448762511121	-46.4231022570739	-125.213845719377	
3229976	-6.25018986414112	-1.18830132549147	-1.88595796589529	179.889387855793	-61.5794715147805	150.640762151963	-48.864488655903	-123.734454944177	
3629973	-6.25652561808237	-1.23483719380715	-1.90195529857797	179.749811029387	-57.3475822009104	-154.085273238407	-43.0334851812753	-143.550198453781	
4029970	-6.25294338175263	-1.33525016213784	-1.87299183845147	179.658196028548	-67.681955850634	91.948625131874	-49.5060775517512	-105.144636537969	
4429967	-6.24505688912249	-1.41642828043085	-1.87279777214942	179.443025577271	-67.1275205960167	-7.15629682751088	-47.3146209423419	-108.408680016692	
4829964	-6.24285097175981	-1.35803201483492	-1.88172577666477	179.396948136004	-60.2004778447634	90.4589917119335	-46.5439885953273	-109.36874973102	
5229961	-6.27017204857075	-1.66573278515553	-1.86234549694681	179.200090539918	-74.4795140807821	97.2932415211995	-48.9235727786221	-138.405944255935	
5629958	-6.24075326991354	-1.81535666793346	-1.87774944054169	179.101661592693	-78.5921276717245	44.6336055425722	-46.0078017485587	-123.961059366026	
6029955	-6.25991112879774	-1.78302510887025	-1.8729863504262	178.885750376628	-67.0789380918528	39.7337386034104	-47.69323787472	-137.380619004709	
6429952	-6.24463151624249	-1.91563788597884	-1.8742776159979	178.872363256002	-72.6836211150319	89.4307000227974	-49.8329508345518	-139.559487792779	
6829949	-6.24529610299081	-1.96298431033444	-1.86534356872729	178.728840215776	-67.4361289317078	-83.389670995785	-48.2526306960692	-105.15762586457	
7229946	-6.25566742560276	-2.0360131482538	-1.86370846595547	178.50532195494	-75.5086010516828	-23.3930146601491	-46.3616748744183	-137.67914878606	
7629943	-6.26512886642668	-2.2996826400032	-1.86670353603158	178.542408653278	-64.0732006940253	10.2770717590469	-51.8943026432009	-138.279189959582	
8029940	-6.23030608637943	-2.40913146744964	-1.88757235800119	178.379684982049	-76.7855451816351	-85.4598894757593	-48.9271470520181	-124.14266680538	
8429937	-6.23707775452564	-2.38979879799223	-1.86871095590866	178.276605501015	-58.5398385173308	82.7257012941454	-47.8252875441895	-139.235451349076	
8829934	-6.24052021535631	-2.29246088138504	-1.86675469263877	178.113709931813	-60.2552971252462	17.6953395919687	-45.1329027553942	-141.027773562227	
9229931	-6.25450495918612	-2.81512194912384	-1.86805967626356	178.029560501114	-63.7384520930315	-18.6364481269532	-51.4038386899178	-101.304937644622	
9629928	-6.2432019000227	-3.01204119574842	-1.84873442169028	177.849370224143	-60.8456416656075	-122.569332129845	-48.4143280668961	-126.577801844444	
10029925	-6.26204032595537	-2.80344352483044	-1.86282740720911	177.797289917723	-63.4706436504072	145.790155809547	-48.7247543959085	-145.632993183149	
10429922	-6.21761433680089	-3.11584192523338	-1.87420910716766	177.653151020629	-62.5520663484316	93.0712876520107	-48.1893212196463	-130.582997093623	
10829919	-6.24810913456681	-3.08471903173303	-1.8692803033846	177.688839980484	-58.8448172378109	106.717209641309	-50.161565403167	-127.675578793891	
11229916	-6.24165748188786	-3.24665106848806	-1.85678305691104	177.445522099725	-62.8039220514572	56.8501143931632	-50.7934932478036	-124.288973220262	
11629913	-6.23961063761473	-3.27146153134439	-1.88052108624582	177.342065555231	-69.5160769923654	-155.135068633963	-48.458849213129	-128.710196398082	
12029910	-6.25575370337779	-3.28257478731637	-1.85844150192513	177.317410715729	-60.5585605250394	-115.74346642393	-46.4725971781049	-135.634268578553	
12429907	-6.23934456237041	-3.55153101703002	-1.85038193863625	177.100071378757	-62.9278319733996	117.889390120119	-48.6410165426093	-117.362924224571	
12829904	-6.20132140801133	-3.53748508767074	-1.86918017961826	177.054474861957	-73.2019313113083	123.145997797425	-48.6409743898788	-127.515012399807	
13229901	-6.23743441519414	-3.787887697414	-1.87246158938113	176.974456910234	-62.0300518153351	32.2193421769058	-46.2679153160434	-133.869363961456	
13629898	-6.24243288992908	-3.7311132008093	-1.87607385132208	176.653818090889	-56.6143043814507	-43.699487703346	-46.0474350383227	-116.717720948498	
14029895	-6.22996104055031	-3.9737408766846	-1.87117582724403	176.689313968124	-61.0231419011994	-157.298687344576	-47.8203225792225	-123.55111966789	
14429892	-6.22017681960164	-4.06589867082305	-1.88458510607224	176.583782746134	-60.4389271626512	52.9729582000457	-52.1148459105173	-73.0949130153732	
14829889	-6.21488238134711	-4.28468571738842	-1.87556581720726	176.585204692541	-72.5372842001657	-0.367597578512144	-48.4382442449041	-113.355253481547	
15229886	-6.20036682671839	-4.4598833173413	-1.86215278433793	176.417079980037	-77.9544632423854	-95.600192746183	-49.9908699232748	-104.322014565504	
15629883	-6.22315441424026	-4.36233154307956	-1.86066556707893	176.425935278318	-61.0412145225152	-99.9898222696683	-53.2783737281614	-106.974391548788	
16029880	-6.21797293169397	-4.50894060400287	-1.86963000860948	176.157608393198	-57.6772502750635	-3.18798386309183	-52.4506496354903	-102.663698491834	
16429877	-6.22422435887626	-4.73094798630849	-1.87213839403937	176.105494667022	-65.1371403052596	92.5890757748633	-50.1373100809039	-82.0064319936208	
16829874	-6.19033506058562	-4.94047237748312	-1.88012271208459	175.979456715585	-72.4283422417976	-80.3300957612784	-47.5255736558994	-113.200352052438	
17229871	-6.2131948201048	-4.79923635903078	-1.86924329956732	175.944427544434	-67.6366785222754	46.0168805241816	-46.6450743747803	-91.3513363918827	
17629868	-6.20680572241867	-4.81925641127992	-1.86275589096684	175.732145947989	-68.605947331631	-145.341161323462	-51.5803070985469	-91.8338654685341	
18029865	-6.21880137501631	-4.95910829508149	-1.87944213018297	175.685653072675	-63.4438403383346	-50.9229215603516	-50.8969184026852	-108.515783819641	
18429862	-6.2082181920629	-4.96986501043204	-1.86979022601041	175.476079868384	-61.3920833102328	141.129471329732	-51.0973872733777	-120.632104706128	
18829859	-6.193004644129	-5.1616941453068	-1.87558316230422	175.435535719409	-59.335863348157	125.27231911906	-49.0281569563526	-66.6298655366231	
19229856	-6.18583289902012	-5.47744546949064	-1.87684834441264	175.430591360256	-68.9868789658827	134.626404571439	-50.1593344399439	-50.2030295324287	
19629853	-6.18961937915914	-5.50122516790541	-1.86709513229459	175.114760228673	-69.9282553897675	41.2702959016725	-52.458611747759	-91.2371386225922	
20029850	-6.21229498362812	-5.57196931402956	-1.86095105521361	175.090746800371	-69.5681886013755	133.033509669988	-49.2324595504479	-75.3528876640425	
20429847	-6.19865990836724	-5.67043324043643	-1.87499731782356	175.051034348653	-68.0910861476759	70.2847671608434	-47.593438773815	-111.355551173255	
20829844	-6.18497460502983	-5.68840371333988	-1.87200767070234	174.949244367885	-59.2199767316865	9.09692662047938	-48.6353716905282	-107.571758595738	
21229841	-6.18832040200678	-5.95532852050711	-1.87790421816642	174.794973545456	-64.0306124196255	-125.086862472084	-48.6786690642037	-97.4720004644449	
21629838	-6.17553443794811	-5.99552715977433	-1.8597123191725	174.634191229976	-55.031700240553	121.634805503177	-54.2715550887687	-51.9344756948958	
22029835	-6.18582436588469	-6.04576040165644	-1.90003439676972	174.642334616907	-69.1258114513677	157.235748628498	-46.6006539568813	-60.8485058939037	
22429832	-6.21074261541389	-6.23092681337495	-1.86892220416884	174.501655222481	-58.126846408405	-72.652697134882	-51.3952488090715	-115.858837963389	
22829829	-6.16362492860311	-6.2445837774304	-1.86285402183044	174.34481059076	-62.9394424152136	40.8410146453388	-46.9519646247307	-83.7513098843195	
23229826	-6.19923860477868	-6.47901694633532	-1.88091886928685	174.296131528388	-60.3873597322523	68.1822649973553	-49.2986361131131	-85.2321505009837	
23629823	-6.16265279713478	-6.40780607224679	-1.88243062693018	174.218744090892	-60.8889056191557	-115.813479149944	-51.8782846213513	-77.534036074736	
24029820	-6.16250114777369	-6.70938577433613	-1.86612165276308	174.147282865308	-58.7849226002573	39.2684189488723	-48.3304914202643	-61.0594381281304	
24429817	-6.17086297725748	-6.55457095110122	-1.86983517815942	174.005642710978	-61.7567479136906	-12.396014002281	-49.6569129599845	-44.4854005816498	
24829814	-6.15818142530759	-6.7257468963842	-1.86226894526958	173.933850913238	-67.3485822968782	-167.242354846481	-48.6669188949652	-66.7662681762863	
25229811	-6.13770867053438	-6.91392613346454	-1.86321579026501	173.797439904072	-79.868329901826	-35.6868886816285	-46.405876607778	-61.4122646584477	
25629808	-6.15332778960497	-7.13859770203292	-1.8909379784191	173.633604932785	-64.9887718656899	-143.199686236813	-49.9980726935265	-56.1121107885725	
26029805	-6.16206999580825	-7.24817835946208	-1.87170078972966	173.512235322093	-55.8840169719564	-52.0261115343679	-49.8788622307054	-56.7756460759256	
26429802	-6.15786502514592	-7.26564995685931	-1.86547917221705	173.361478298707	-74.336690977486	-85.6246361499274	-51.2430603190165	-93.438275209772	
26829799	-6.15767723317153	-7.28308964625575	-1.87262845315692	173.348497037587	-65.2557667861806	136.726523741889	-49.9423480166585	-42.1402045566015	
27229796	-6.15899790342568	-7.38316250906315	-1.87186388404908	173.287317013401	-64.7069560037652	-109.408253383293	-44.3436961613622	-54.4182989818735	
27629793	-6.16287459419943	-7.4154351226615	-1.87459448950537	173.107082988182	-56.7893397044775	-101.840191061078	-49.2286279580863	-72.9100581798052	
28029790	-6.16944738306634	-7.59304307816941	-1.88147871757139	172.993459331566	-60.9830656394628	-145.354038755654	-49.4169157231469	-54.960890051762	
28429787	-6.16110360617923	-7.54964100859099	-1.89396256405847	172.959221654579	-55.9352773372925	99.5298089366366	-44.9311805742054	-31.8542180024672	
28829784	-6.12347587573301	-7.84255678040047	-1.870105164457	172.800692001648	-62.106075377747	74.6215465586878	-47.5161358222475	-39.114101252917	
29229781	-6.15514328434067	-7.89701631631543	-1.88948678983132	172.724257145128	-61.4722647884045	-18.9326114441909	-44.4444828367371	-53.7401223545193	
29629778	-6.12654357382672	-7.97330013249505	-1.88434572045669	172.640808347607	-60.8519824483874	-43.6715999205087	-45.6144526721794	-57.0852458714764	
30029775	-6.1325430809079	-7.96317560999094	-1.86882593435368	172.477082718951	-56.4177358617678	-115.524443892956	-43.7643574318435	-50.2065865373993	
30429772	-6.11214835745747	-8.18128655645878	-1.86424954752959	172.374879437441	-76.0835755889562	129.597520314089	-47.2346289864046	-44.8756056099264	
30829769	-6.12346267021605	-8.45417439435087	-1.88203471546104	172.311738824834	-65.5565017028294	64.515722001305	-45.591451906961	-31.0039529577538	
31229766	-6.13115311182543	-8.26665885084381	-1.87907115134609	172.384891869532	-65.3128376352774	-112.817018627462	-46.2288091706097	-62.6290856957313	
31629763	-6.13168161754467	-8.46798188874834	-1.88455559500924	172.079155833812	-71.8353084400294	-147.080778604954	-45.1254737968959	-35.0661137693112	
32029760	-6.10590498741967	-8.43830526432152	-1.89698706985575	171.932910939356	-59.8057449349494	-103.429443894833	-45.5397706102358	-36.3959995595064	
32429757	-6.0911392909727	-8.82911849188214	-1.89550920443303	171.819395184282	-54.5398745690593	2.93414989204118	-43.3565377761908	-58.3598506377359	
32829754	-6.12260172236072	-8.76197164589706	-1.88187145906372	171.774679036584	-59.9963809502045	-24.8428739397264	-44.8622805572945	-53.2542253038231	
33229751	-6.11410836566323	-8.90964903098586	-1.88205516743743	171.558732372894	-72.7649846516404	42.6579160225584	-43.5849609403869	-29.5407018247052	
33629748	-6.10312640796076	-8.71577598515062	-1.89143786516589	171.489466196221	-62.4822638732551	89.3273339067934	-44.630408630241	-27.9402105230202	
34029745	-6.08392852676632	-8.95351033966365	-1.89362567880818	171.513333721448	-63.476225493541	6.8222647239095	-45.3262137864973	-32.1555405095937	
34429742	-6.06924964165108	-9.0854472370885	-1.88934581956743	171.284399940751	-70.8626888767003	6.90012634387759	-44.9009672666399	-43.4953167386311	
34829739	-6.08688950883403	-9.2228783476801	-1.89231419652415	171.236484213563	-74.062269718983	-83.3147308187298	-45.3661646344702	-21.5509817406705	
35229736	-6.07759311617198	-9.35389331160806	-1.87964652981653	171.08931255314	-59.6959282732928	-143.742743524535	-43.4004815205049	-48.5130469823405	
35629733	-6.07875827973577	-9.44986607722326	-1.90901171016097	170.922207548572	-68.5330105887614	-119.749474376431	-44.7981634049885	-27.163929077467	
36029730	-6.09659963298103	-9.32429021867414	-1.89405331763703	170.778449397656	-61.8343187906402	-171.021265752717	-44.521690563331	-19.7744304360185	
36429727	-6.08196011980879	-9.49010096609353	-1.89087066523969	170.776275572495	-65.3400862406101	94.8622642525311	-44.5809523869888	-14.0965409331889	
36829724	-6.10791367596359	-9.6664257808577	-1.89215984199245	170.620984189564	-72.3341916024515	41.4229544960646	-42.1790725561277	-19.5989075012255	
37229721	-6.08035904177543	-9.56875829870044	-1.89746055959109	170.417333257565	-74.7279818952195	91.7901548786398	-45.4123847655966	-23.4637925686469	
37629718	-6.08273856042851	-9.88038399318901	-1.89161628528402	170.478662044031	-69.2172082319235	-105.881918141038	-44.5554125822831	-27.4692987588554	
38029715	-6.09857966210127	-9.92304200862425	-1.90326617235532	170.253168073345	-64.9237730065014	39.3334531450221	-42.7649595678156	-26.2528390438554	
38429712	-6.07823688482888	-9.95392213529125	-1.89519081883956	170.152597012793	-66.1603527843421	73.8133964825862	-41.9356135730965	-20.593420258321	
38829709	-6.10503370918303	-10.0031457746272	-1.89135269169187	170.131586047173	-72.4413485870228	50.0112157133135	-43.5381921173062	-10.0483436250752	
39229706	-6.07586945128218	-10.2756239709697	-1.8930412896582	169.974679442674	-61.9587302783829	-93.159545749188	-40.9807871122319	-22.3653663747191	
39629703	-6.06486314922794	-10.1213780872783	-1.90639768063462	169.945086019517	-69.2777467903538	-131.936491131022	-42.2015138813849	-24.3632202124536	
40029700	-6.09928189800013	-10.235769438657	-1.90227808258062	169.734909695392	-62.2220622933132	-27.6391018909171	-43.8713870243365	-23.3394799052879	
40429697	-6.04906143047474	-10.3224089542405	-1.89545765407208	169.705139268582	-64.361709099686	26.1479146786634	-43.1270281483067	-16.1570053287716	
40829694	-6.06038670046279	-10.4680952369177	-1.87859628778513	169.450747384508	-67.4553495388896	-13.2176494425412	-42.1497475094611	-12.0938222589153	
41229691	-6.09075854563795	-10.530559452791	-1.91294328566636	169.449449831159	-75.3734282665384	27.9729678583218	-40.4622484785657	-10.9543629233199	
41629688	-6.03365702234925	-10.3346983920174	-1.91433030997586	169.376091929425	-58.3837526535478	147.553130022106	-42.2881429448146	-22.0566687831293	
42029685	-6.04934897135963	-10.6765559747049	-1.90898029740201	169.328896277911	-61.6088452142939	-134.19277444179	-42.0260527298137	-16.0378532981813	
42429682	-6.04559153442473	-10.5641727398802	-1.90951754144114	169.109517132796	-66.5449714393255	-149.787222525271	-42.1028069609287	-12.6748431256476	
42829679	-6.0570551621952	-10.8130683942455	-1.89989439126135	169.050773405634	-60.0456554593796	26.9310806252326	-40.6070036132976	-14.9320712350642	
43229676	-6.04265523865017	-10.845841278912	-1.91762965925532	168.915703935082	-60.0937718347986	-37.1579646411654	-41.2214733824166	-6.1773773072723	
43629673	-6.06457057945686	-11.077575039659	-1.91637855098305	168.778955332587	-61.2149398802872	-126.810651418054	-41.1792031550169	-15.0333305866671	
44029670	-6.0692124885852	-11.160258465191	-1.91719731056437	168.643739544003	-76.4085959586077	-33.4413773803892	-41.3480141062168	-6.00012333607909	
44429667	-6.05362487481002	-11.0409108718802	-1.92049019093303	168.49795069274	-66.5922146308515	18.0631988369127	-41.3042158955839	-11.2940527231463	
44829664	-6.05423073612952	-11.3722042600802	-1.92287412425392	168.43609185503	-88.3594266032554	-151.985369836353	-41.5148088930889	-9.79117328428484	
45229661	-6.04385255604795	-11.3801037548841	-1.91254043200236	168.484425117423	-66.4614749112969	-10.4756616934509	-41.8186648659413	-7.48332500075125	
45629658	-6.05899320737659	-11.5147296980286	-1.91871606368782	168.228104507874	-68.8016526421997	69.2410520131866	-40.5930929904281	4.17343430417896	
46029655	-6.05327376028714	-11.4083865660194	-1.90485417915363	168.102804759278	-62.1094471044049	139.827654245222	-40.6833946988941	-2.79029316382367	
46429652	-6.052701432818	-11.4530039318395	-1.91573575691062	167.967926268504	-63.0768917580723	156.541560917353	-41.1379584130857	-7.3350386799823	
46829649	-6.03132415512521	-11.5421658940459	-1.9299523977017	167.869211165139	-60.1847957431573	-122.175121693188	-39.984451868609	-13.1396728941337	
47229646	-6.02665093927465	-11.8344253356685	-1.91890774890234	167.773449067683	-65.3559819273903	175.121253769561	-39.8506226184347	3.65161828619963	
47629643	-6.04582004983489	-11.7469378435633	-1.92648072884047	167.723694434728	-75.2621153669342	-88.9618257075863	-40.4053347891942	-2.85938904587957	
48029640	-6.03609075310621	-11.6903303871773	-1.93813005647328	167.422647260286	-60.6223813089167	-122.329444174634	-39.8907268159402	2.93614476533824	
48429637	-6.06086685386762	-11.9873492764373	-1.9294187127427	167.540824505537	-58.3408835671349	-91.5225574149703	-41.6376727931883	9.89045182063584	
48829634	-6.04719664916742	-12.0147619250036	-1.9285221053943	167.399345710685	-71.9924685427811	26.1823181202853	-39.8667344415133	5.02510127647196	
49229631	-6.03276025844277	-11.8678210342137	-1.92488050354789	167.176424555251	-68.3229222553698	-17.4823876320134	-39.5103744633498	3.1373432030377	
49629628	-6.04515520220751	-12.0364818034509	-1.93294212676889	167.041363818687	-72.5796829401657	53.3108461140289	-39.2469530294065	2.89858108364159	
50029625	-6.03549061441964	-12.3579879205688	-1.9377901155289	167.048057422549	-66.5347704485942	76.4826233957443	-39.6972740508778	7.70637824277403	
50429622	-6.04206319345296	-12.1962884651385	-1.92664358504552	166.959907691214	-61.5319487207157	4.7399200717398	-39.3812141207934	8.52534658589501	
50829619	-6.02607616692147	-12.4199210987678	-1.94344738660585	166.709779562549	-75.9600181704967	-34.8241000517253	-39.3727012183855	3.28495612320641	
