!Keysight Technologies N9917A: A.08.18
!Date: Saturday, 27 May 2023 16:30:03
!Timezone: (GMT-07:00) Mountain Time (US & Canada)
!Model: N9917A
!Serial: MY52401314
!GPS Latitude: 
!GPS Longitude: 
!GPS TimeStamp: 0001-01-01 00:00:00Z
!GPS Seconds Since Last Read: 0
!CHECKSUM:0075446589
!Correction: S11(ON U)S21(ON U)S12(ON U)S22(ON U)
!S2P File: Measurements:S11,S21,S12,S22:
# Hz S DB R 50
30000	-4.43590617859179	-17.987989968163	-7.13236324588317	23.126275887931	-7.15159082387921	23.5221138865683	-4.47801755751285	-15.8311838451966	
429997	-6.23675246180884	-2.05954776037517	-6.21664881458052	1.69902354940141	-6.20875094124175	1.65438512697887	-6.22929545561216	-2.21308940930018	
829994	-6.26283459623773	-1.56204634542457	-6.21736414358821	0.706173622729482	-6.21425042655588	0.752349915766619	-6.22052747286769	-1.53548715717318	
1229991	-6.28158892343172	-1.50816100788792	-6.19379886693631	0.146590741805955	-6.22167546152168	0.308813924715302	-6.25843501726179	-1.43481855330238	
1629988	-6.29707029170334	-1.51531789736481	-6.21041661007447	-0.113529243839383	-6.21849423480372	0.0417769593367521	-6.26293375275444	-1.30078797578091	
2029985	-6.29886103895912	-1.53879660644734	-6.2090724151387	-0.297754372937346	-6.2262851240397	-0.163087509186262	-6.28818534690761	-1.34525386176532	
2429982	-6.27707904809487	-0.890476689256951	-6.20883965952974	-0.175050368868739	-6.19907783555468	-0.321928562016312	-6.23457060618313	-0.835459535273108	
2829979	-6.24994217307064	-1.11169995898326	-6.21186416381513	-0.338025694771106	-6.20384210895429	-0.304702901220716	-6.27028345757206	-0.978766368276706	
3229976	-6.27689620866225	-1.15197079222539	-6.21769338254057	-0.41624541941419	-6.22337957528066	-0.435156146616296	-6.23847280735272	-0.908063692765525	
3629973	-6.25486728255946	-0.98429913377976	-6.20539133458857	-0.549112341248337	-6.2091036418707	-0.682163539856052	-6.28038045957012	-1.20744723654976	
4029970	-6.287623803451	-1.25033487091551	-6.2089569432273	-0.563602821117328	-6.21905997955167	-0.67007404934366	-6.22181684014555	-1.16683225025989	
4429967	-6.25883412931713	-1.28000544386302	-6.20065368653142	-0.724260574116658	-6.23545745803243	-0.865473516348325	-6.24965888254447	-1.37716065957847	
4829964	-6.27189081775209	-1.40694996118299	-6.22126778332539	-0.87686427129605	-6.19895289377414	-0.692098323928016	-6.19607691354033	-1.39315178427568	
5229961	-6.29369599221215	-1.70485196001903	-6.20780294184527	-1.05113178464231	-6.20862200339231	-1.06077672357084	-6.24143679843947	-1.29373194842431	
5629958	-6.279056414016	-1.76980169364348	-6.21197362224447	-0.949734369625945	-6.22416698830104	-1.01209283390572	-6.23081702072896	-1.67746610098134	
6029955	-6.27577016406659	-1.55752299459214	-6.20474318950828	-1.11392330092742	-6.20738228637851	-1.09675023856975	-6.25242226892122	-1.71568006064231	
6429952	-6.28893274226419	-1.92059081809633	-6.20173748405482	-1.23720710687585	-6.21684301670647	-1.27811532674573	-6.2370367045225	-1.9257320737045	
6829949	-6.31621249779938	-1.96624347891946	-6.23020292465035	-1.37413849430244	-6.22205360163748	-1.43080577862107	-6.22910760155877	-1.93401674705795	
7229946	-6.28384653209308	-1.95491199985247	-6.22781460988838	-1.40556472258022	-6.21292304682411	-1.41140440311129	-6.2313617822601	-2.08694730253875	
7629943	-6.26037867719384	-2.31500688850696	-6.23050118424179	-1.54332302600486	-6.21512876036317	-1.56035990518649	-6.25325283160555	-2.11985896392065	
8029940	-6.23861277034342	-2.18191468211177	-6.22212357992768	-1.65187142154661	-6.2328070682919	-1.69848273015049	-6.26437502608956	-2.30959993946552	
8429937	-6.26842264618506	-2.37900005626203	-6.21424772588818	-1.75977928436461	-6.21472636766573	-1.7233671875343	-6.24642430469406	-2.2401587385924	
8829934	-6.25966517066295	-2.50206348889361	-6.22132625616688	-1.70996461869989	-6.21802839841159	-1.71453400167103	-6.25920211697033	-2.52963982349188	
9229931	-6.27854353399711	-2.58445159317184	-6.2282298872363	-1.85122322976926	-6.2044969964932	-1.96324849180121	-6.23821384584735	-2.32935185289568	
9629928	-6.27851312238565	-2.79345953373372	-6.21539818028788	-1.87821420061711	-6.22890762403695	-1.99400369513014	-6.22035619496456	-2.53049327670284	
10029925	-6.26698794322802	-2.72129981494997	-6.20060855964769	-1.97255978198889	-6.20839354762931	-2.020298122717	-6.25813328480708	-2.76951409524357	
10429922	-6.24296762737316	-2.90773056454321	-6.21600600332779	-2.16961334173033	-6.22250185209473	-2.2597568317533	-6.23816154866865	-2.75489614676897	
10829919	-6.26346619783679	-2.98270733717393	-6.22192126020868	-2.0771080231183	-6.2317658681963	-2.27687061460853	-6.23585010481122	-2.87843560709503	
11229916	-6.24074123469295	-3.18761807414252	-6.20305281844181	-2.23193230878691	-6.24497471397084	-2.3545969137228	-6.25258670801351	-2.962697826965	
11629913	-6.25458120216195	-3.34381002383789	-6.22609981921374	-2.43335444011255	-6.22052647167577	-2.40305857379528	-6.22100502552418	-3.14111466800219	
12029910	-6.26816009180101	-3.26926480811796	-6.22187668545264	-2.21565989154504	-6.20751925464321	-2.55326777051577	-6.24253769789654	-3.31651605648515	
12429907	-6.27363386923689	-3.48475380724675	-6.21626451217001	-2.54817425754644	-6.21961201378287	-2.61731909403624	-6.2241248533415	-3.22194891436859	
12829904	-6.23982705583963	-3.44885531117033	-6.21722814547722	-2.58965785180565	-6.229091981265	-2.70390671086669	-6.22510600786411	-3.48066158705756	
13229901	-6.22693394924968	-3.8432822054907	-6.2150427770074	-2.71779255413656	-6.21801553582096	-2.71914157697076	-6.2580038039905	-3.63914572043534	
13629898	-6.25801212497868	-3.80358142836909	-6.22435075913982	-2.87156164382377	-6.22264561640331	-2.81573503762671	-6.23606952841654	-3.71736873856135	
14029895	-6.24963318966755	-3.99683131422787	-6.21814207034046	-2.80448021073789	-6.22268059314266	-2.90767919537883	-6.24182454382639	-3.7426586129278	
14429892	-6.22899139864618	-4.07820819352416	-6.21859592739311	-3.03821193310562	-6.23493795264969	-3.07449373077644	-6.20434468261602	-3.77635937714114	
14829889	-6.22616127436277	-4.26534423015975	-6.22615006587757	-2.97248298358473	-6.2288108031627	-3.12148701195176	-6.23623298022457	-3.87647794261776	
15229886	-6.21384389438349	-4.39892014812743	-6.2200382887087	-3.23788132626569	-6.24099036950672	-3.30208977049468	-6.245146522281	-4.01891685849353	
15629883	-6.22914736859121	-4.31594311757427	-6.23587088886185	-3.13248792307768	-6.22970878428191	-3.35279198486846	-6.20825707606622	-4.1287187276119	
16029880	-6.22967670932668	-4.56442298747017	-6.22279748489106	-3.2554607912754	-6.23387421525375	-3.5276331170897	-6.21638300242065	-4.15366610303846	
16429877	-6.27243121277121	-4.71546030073116	-6.22013106243383	-3.48546044213391	-6.21966768530497	-3.60878356783435	-6.21187326722414	-4.36222336678451	
16829874	-6.22482197524372	-4.78141594230204	-6.20790996688887	-3.36455231857377	-6.23725930787153	-3.65556635030131	-6.21844395533963	-4.50181119200245	
17229871	-6.21184244840773	-4.67778922038723	-6.21713692625583	-3.56712686495471	-6.22696897157394	-3.57248061980876	-6.22382198002461	-4.59857080415381	
17629868	-6.21339842474029	-4.81424007108522	-6.21145655969128	-3.62060397929364	-6.22668814026221	-3.78072485706048	-6.22307497831142	-4.49267774896385	
18029865	-6.25069848557447	-4.97610187955007	-6.21452080555733	-3.76012725614543	-6.21660571453635	-3.75649493734542	-6.21870042392812	-4.71923467900215	
18429862	-6.23520554888225	-5.00678782581316	-6.2185531529215	-3.91202731683054	-6.22684595282213	-3.85935582386549	-6.24387626974809	-4.91826135241737	
18829859	-6.23904187410586	-5.30927342086563	-6.23650901153719	-3.86645892380574	-6.26001769935671	-4.12791667134676	-6.19977462143964	-4.96349632505068	
19229856	-6.26225847703682	-5.37729661757845	-6.24960362703024	-3.94207472094468	-6.24223876711537	-4.15700654851197	-6.19951523958364	-5.08918831099692	
19629853	-6.2048715350552	-5.36212957282212	-6.22837505523031	-4.17830297255697	-6.22034477819352	-4.14025204155315	-6.18207049728507	-5.13822113870892	
20029850	-6.21496728071388	-5.65051509872918	-6.21877203144327	-4.14326980377599	-6.23247418619363	-4.1827219855143	-6.17909576526151	-5.16989667965371	
20429847	-6.19798311128085	-5.50444018092471	-6.21984522931893	-4.24016424629368	-6.22334425465074	-4.22625666573071	-6.25315175586305	-5.25116821883026	
20829844	-6.18702890096867	-5.58539996710542	-6.21251644542817	-4.31195525635574	-6.23966955254902	-4.42714367835083	-6.16951456427223	-5.43321651366252	
21229841	-6.1908674252094	-5.79892240184981	-6.20222329522082	-4.56972385621905	-6.24673412175347	-4.53147462944211	-6.19491475112668	-5.62331901293372	
21629838	-6.19371545270151	-5.86494668101735	-6.21666158730442	-4.62127073411412	-6.25502025580044	-4.56029946699938	-6.18238258951351	-5.52752351109068	
22029835	-6.19417809863701	-6.10579075907545	-6.23459437887508	-4.63092640899344	-6.2291521502809	-4.71405859385805	-6.2088361110405	-5.84069141613808	
22429832	-6.20323167634611	-6.19865651691979	-6.20743823318255	-4.73743675089499	-6.24100502503467	-4.85005935965316	-6.20083322237663	-5.72459006218439	
22829829	-6.18827128986214	-6.33364401148468	-6.24147890877168	-4.70872132017358	-6.25636739694151	-4.97111688522137	-6.19900439756509	-5.80491731754303	
23229826	-6.17916115875475	-6.31345825591947	-6.23219446779955	-4.83796531121044	-6.23876963577069	-4.90122989333496	-6.19078874587115	-5.99282036064912	
23629823	-6.18762222125278	-6.39134856478116	-6.22311768097349	-4.97374106716307	-6.24129370797969	-5.089431719272	-6.20476278722609	-6.19765553268076	
24029820	-6.18334664985435	-6.65243150821888	-6.22605875293161	-5.0031359766554	-6.23707493896046	-5.05755230267825	-6.16699043774428	-5.99902148804753	
24429817	-6.20924715833792	-6.64528174151257	-6.21804998640022	-5.13511798475769	-6.27302615471436	-5.31698939863871	-6.1753674710598	-6.10184453098369	
24829814	-6.18231028505293	-6.75159486268905	-6.23948366126398	-5.2252420532348	-6.24939533652604	-5.28342939802386	-6.17834041259719	-6.32832702994083	
25229811	-6.15696200061807	-6.8055852063104	-6.21576454219127	-5.27707314919397	-6.24498503077937	-5.27891080248177	-6.18610526890302	-6.45384319410316	
25629808	-6.15693232918935	-6.95498594187411	-6.2291207675039	-5.3531626642088	-6.22485131999562	-5.47253665004884	-6.17289800914835	-6.58978576004089	
26029805	-6.1475003047987	-7.27036570285844	-6.2081037646021	-5.52922093647764	-6.2428097563944	-5.68305182075799	-6.17838635141247	-6.73204621859572	
26429802	-6.17412967630187	-7.28701877051924	-6.23633365290044	-5.49166743954964	-6.22778824360032	-5.62538829710746	-6.1846190466072	-6.73900429109037	
26829799	-6.13170117987914	-7.32770049320321	-6.21938721466198	-5.72659128538683	-6.23016525418141	-5.68203882642605	-6.15922406925776	-6.8285340348593	
27229796	-6.15137045915632	-7.3896879252598	-6.22201020778246	-5.70207692162764	-6.24369636984347	-5.81808026716888	-6.17635859033057	-7.02198554583052	
27629793	-6.16680516701579	-7.44701071616069	-6.21534540574459	-5.78776805348422	-6.24274300622794	-5.99063562162276	-6.19073041698568	-7.36741386550527	
28029790	-6.15714771517839	-7.5509394896182	-6.20573613580547	-5.74759410033727	-6.26372690699689	-6.13420478541617	-6.1748589963394	-7.21395805675851	
28429787	-6.16702748060722	-7.52366188425774	-6.23141770920173	-6.00821791796101	-6.25023401081454	-6.12844156974898	-6.150621746435	-7.24686789702915	
28829784	-6.14379789475297	-7.83017875546379	-6.22347905798995	-6.19088554687269	-6.2413626339632	-6.17091389199064	-6.16326775655934	-7.30008200515243	
29229781	-6.13339877348402	-7.86801808989859	-6.25251803345336	-6.19612130681437	-6.25610691465716	-6.26141477627495	-6.14983525585267	-7.38988831972437	
29629778	-6.13930592792523	-7.70192107135829	-6.22569570866751	-6.18160859535791	-6.2663637711066	-6.33260678265735	-6.13797127127341	-7.67015627030059	
30029775	-6.14495962044608	-7.9810219316993	-6.23696087613457	-6.43238263152551	-6.26706375640728	-6.45925927855598	-6.10638814630124	-7.73616367253913	
30429772	-6.11766971433322	-8.20361539766512	-6.21765915754394	-6.47674584424217	-6.23387374872831	-6.52181640024275	-6.15046911870447	-7.64478063317895	
30829769	-6.12971948972274	-8.36540447396651	-6.24236054595606	-6.52141774969481	-6.25744362831885	-6.80518541631584	-6.12162046304897	-7.87530374785441	
31229766	-6.11506553574333	-8.48564526147979	-6.23139603289413	-6.51792301287581	-6.25483833366488	-6.92298952838665	-6.14608672092446	-7.99735269476205	
31629763	-6.13830628674007	-8.3748693824427	-6.2549588916788	-6.6714565552369	-6.27061519338041	-6.90339963029274	-6.14576406513316	-8.03495564439555	
32029760	-6.11252170500519	-8.52111501420207	-6.24674171381934	-6.77748348528623	-6.26281916268661	-6.97115847665442	-6.12475521183021	-8.22380036731885	
32429757	-6.09149029783277	-8.5927796126894	-6.21845104024279	-6.90318352753462	-6.27255098558133	-7.00274689581604	-6.14777130357481	-8.39487052168801	
32829754	-6.09925708932896	-8.770279921645	-6.24079960464224	-6.88530962127	-6.23604838803403	-6.87171479138713	-6.1358713689764	-8.37805379179793	
33229751	-6.12074941463427	-8.87810545410305	-6.23322957817106	-7.05816020700722	-6.26169902549074	-7.25235510774205	-6.120106913455	-8.54904528323921	
33629748	-6.1032272045567	-8.87200389484446	-6.24095311438346	-7.2280950164286	-6.25959961442638	-7.23627884829391	-6.12014668436666	-8.46270677301539	
34029745	-6.09735190349492	-9.00477472743082	-6.2576187623203	-7.12780320575993	-6.22821271512939	-7.30476650709095	-6.13242165062411	-8.56971350001998	
34429742	-6.08117352330589	-9.08054231748548	-6.2366372723277	-7.27891935471547	-6.25165446256898	-7.47654419133696	-6.13202712380439	-8.63655851556741	
34829739	-6.08981327674902	-9.20681832478927	-6.24048186192671	-7.46106926642086	-6.25571258915202	-7.65984309560013	-6.10785554628856	-8.89481797802608	
35229736	-6.0932604749528	-9.44182064835998	-6.21798940195314	-7.47452665242286	-6.26978664298954	-7.47970262890841	-6.13030730356657	-8.88826907738298	
35629733	-6.0512473298509	-9.25417238581925	-6.24182891017224	-7.65866992914779	-6.25276752805804	-7.74499723823797	-6.10275440646905	-8.77104563218556	
36029730	-6.10980693730379	-9.40842657598477	-6.24981529260677	-7.67316005661236	-6.250244613929	-7.87632418215495	-6.12766215272781	-8.99289466591503	
36429727	-6.09127750994607	-9.55731476489515	-6.23502117566704	-7.75108954508184	-6.2839817063709	-7.98982594178556	-6.12319433491015	-9.13521638383024	
36829724	-6.10282337088169	-9.51576704229567	-6.25487983643828	-7.95686227332959	-6.27212934442673	-8.06951927899836	-6.11768719890211	-9.11010019028668	
37229721	-6.097106635308	-9.58668069584195	-6.23113478419283	-7.94047674329558	-6.2595966539345	-8.04830634396465	-6.10297288505015	-9.15704616315181	
37629718	-6.10105049343624	-9.7773860283667	-6.2571219605878	-8.10109296087415	-6.27663443452396	-8.21550783840499	-6.11196318825316	-9.38928737975179	
38029715	-6.09066578743004	-9.84566024747249	-6.23013612143399	-8.07813942382427	-6.27632060042681	-8.33384413983278	-6.0900804915622	-9.45384683003709	
38429712	-6.06742263574902	-9.98005281229324	-6.25133640094312	-8.54261770481842	-6.27168967146731	-8.31213000895892	-6.10270951701467	-9.58836493056488	
38829709	-6.08410821554255	-9.91682513922511	-6.25321119962479	-8.35760881505288	-6.25536766491438	-8.44656657242807	-6.11223926565586	-9.60825042471849	
39229706	-6.08908800219526	-10.0408927102441	-6.24186205875248	-8.36721915981702	-6.25103476248928	-8.60894290584474	-6.05868786091281	-9.68953631217141	
39629703	-6.04477134582015	-10.0849202661409	-6.23705101512845	-8.42540287465702	-6.29328830370184	-8.48928257913649	-6.13877646789665	-9.75852621811553	
40029700	-6.07626912855786	-10.2743777461777	-6.25161329479068	-8.7281779774865	-6.25892695787823	-8.60000197829288	-6.08853356828685	-9.87449422683778	
40429697	-6.03493817435022	-10.424608282241	-6.2513185964546	-8.74262806991491	-6.28133745371423	-8.90989980134534	-6.11358732416007	-9.99182445019147	
40829694	-6.07695663737255	-10.4478330362483	-6.24292536785545	-8.86717276550148	-6.27405844236866	-8.84208094070203	-6.06611876479256	-9.9487784090775	
41229691	-6.05726500378622	-10.5283052219637	-6.25296112792811	-8.85278803671389	-6.25984984901877	-8.9810480302618	-6.08569618857118	-10.0481816934112	
41629688	-6.03492552593413	-10.5321241021472	-6.25248782938054	-9.05195798090202	-6.27080239888785	-9.03663923987559	-6.12049511325257	-10.3597715050051	
42029685	-6.04803075235125	-10.7750726346739	-6.27773773772021	-9.0253464105574	-6.29305578948713	-9.1370669430199	-6.09053157723054	-10.3739415897565	
42429682	-6.03951248501134	-10.7768177573484	-6.24656835169935	-9.25894918844794	-6.26977278665163	-9.33548775210838	-6.05660741493729	-10.4599242909384	
42829679	-6.0539287803961	-10.8483750981358	-6.2769205325419	-9.38036264616023	-6.28817402395948	-9.42151098397604	-6.08633358398212	-10.5984884550008	
43229676	-6.03612315409673	-10.8986168187929	-6.23855085113314	-9.34785921307515	-6.25610068154457	-9.43230446354677	-6.07516224804156	-10.5026470974926	
43629673	-6.04363635020405	-10.9018995629302	-6.25723827821923	-9.33914755475581	-6.26174492159847	-9.51331067335066	-6.08712287610388	-10.8036279613683	
44029670	-6.0300012623831	-11.0790843157594	-6.24251555636439	-9.64532930296975	-6.27493677969591	-9.5767940527222	-6.07238620517776	-10.765304398009	
44429667	-6.00671169893423	-11.2070455070048	-6.25154703121773	-9.85139330804611	-6.30566725949129	-9.76262255457979	-6.0797483408255	-10.8651872210505	
44829664	-6.0333881125385	-11.482917031455	-6.26769420029911	-9.79062233771187	-6.28218270758682	-9.62335325443039	-6.06503216336709	-10.8909010847496	
45229661	-6.02959092449082	-11.5945753740108	-6.24326025545197	-9.66103619801806	-6.27105902915611	-9.95087272555235	-6.06942681683243	-11.0325311774953	
45629658	-6.0459639749338	-11.5475080420367	-6.27947336382386	-10.024640168924	-6.29172212678682	-10.0303630049694	-6.08708772416233	-11.1454794679291	
46029655	-6.03114746968138	-11.4138476077533	-6.26642375992944	-9.95459738751171	-6.27641745194982	-10.1960900583302	-6.06116972492762	-11.1669449767233	
46429652	-6.02079509192228	-11.6093379553561	-6.2323335870829	-10.259545366516	-6.28497074644238	-10.3375705010257	-6.06684723737792	-11.4505338661055	
46829649	-6.02538720978427	-11.5575261827287	-6.26788849179859	-10.0784450575104	-6.28845534653006	-10.3200509619885	-6.04023530169299	-11.5071953322027	
47229646	-6.03732049551049	-11.7087493201822	-6.27627205110711	-10.4025422572782	-6.29797202033338	-10.4234229701618	-6.0229107644065	-11.4359152035668	
47629643	-6.01165362922018	-11.8622411604759	-6.2848856949405	-10.2320456533693	-6.31079645729332	-10.3428356548797	-6.05811425747267	-11.5731595899467	
48029640	-6.02930189249405	-11.8108838875403	-6.26187424487017	-10.5916974438211	-6.29291762263729	-10.6171713322586	-6.0607797237251	-11.5900287318408	
48429637	-6.01346988072145	-11.981905436626	-6.25393027963606	-10.4413848011153	-6.27207311993145	-10.647437451132	-6.05557456394503	-11.6469184223101	
48829634	-6.01274760558315	-12.1868139196874	-6.2677050357689	-10.6718008095105	-6.31029059878861	-10.7711964614598	-6.05899246534827	-11.6872934307494	
49229631	-6.04194440131126	-12.2304089574145	-6.28616782451505	-10.7612656459964	-6.33087047467869	-10.769648711826	-6.08238651899691	-11.8033653803358	
49629628	-6.00255036422205	-12.0725837281329	-6.26091081055388	-10.7798471795936	-6.29113738532778	-10.7552393826756	-6.02425395425049	-11.8871435077812	
50029625	-6.03852926979394	-12.2446035762659	-6.29380640097444	-10.7695953936036	-6.29324932499171	-11.1320583930107	-6.04416063445669	-11.9576747357357	
50429622	-6.02083260127537	-12.2046036135912	-6.27564334023609	-11.1150810920041	-6.31936135598598	-11.0689847830333	-6.07437332357724	-12.0651764917395	
