!Keysight Technologies N9917A: A.08.18
!Date: Saturday, 27 May 2023 16:48:15
!Timezone: (GMT-07:00) Mountain Time (US & Canada)
!Model: N9917A
!Serial: MY52401314
!GPS Latitude: 
!GPS Longitude: 
!GPS TimeStamp: 0001-01-01 00:00:00Z
!GPS Seconds Since Last Read: 0
!CHECKSUM:0542808461
!Correction: S11(ON U)S21(ON U)S12(ON U)S22(ON U)
!S2P File: Measurements:S11,S21,S12,S22:
# Hz S DB R 50
30000	-4.32471482006927	-18.5838937815718	-4.05093191006286	49.8336716499158	-52.5753098640535	165.714490401332	-7.83033241602619	-61.8596534834044	
429997	-6.21452843891884	-2.31156553641531	-1.97713670475444	4.13134733048244	-61.6411391199824	31.6619243743011	-29.4037113527789	-93.2437079194192	
829994	-6.2646462608029	-1.70204908243467	-1.93494414221755	2.16698582471226	-60.9692949606529	1.0705795112984	-33.8759313847679	-94.8375245354005	
1229991	-6.25564398950624	-1.65685250434955	-1.92341530175278	1.28835531358494	-72.3724976333684	160.438398666579	-37.0453414374456	-104.116294083006	
1629988	-6.25584031175545	-1.60026485661873	-1.92303604501927	0.96492869062609	-64.1905903553885	48.1961782172397	-38.6431396697959	-104.29678128383	
2029985	-6.27806447325553	-1.49386415415102	-1.92275734485541	0.737024354267846	-66.1091784180525	-99.0578823633298	-40.0222501266989	-103.90045204929	
2429982	-6.25389016939756	-1.12432532650943	-1.90968852257931	0.863144090790769	-77.8873607655766	58.9189343822481	-44.1031062686713	-111.291340149382	
2829979	-6.25083701466562	-1.11418121885886	-1.92181729424793	0.723712962555973	-65.9445148268883	53.1757960897663	-44.4172542939603	-121.752289005384	
3229976	-6.23847053597838	-1.21463692633515	-1.91537823364321	0.630037388189649	-63.874729361818	-115.399414936486	-48.4775837151968	-102.811160569771	
3629973	-6.22924361881713	-1.27452286346766	-1.92564280492553	0.525970178711158	-63.7616049271475	159.828620934156	-47.4438814979098	-132.778817989447	
4029970	-6.26243611472905	-1.37620994779765	-1.91575332549834	0.515772131985432	-77.9763708685474	-172.995058478693	-49.8414057285634	-81.197548103841	
4429967	-6.24760457369845	-1.52052478527459	-1.89800143314216	0.344721529126283	-68.7292111307057	-3.20328139922531	-49.5518206462434	-95.5587995017823	
4829964	-6.25923049582971	-1.33599087556089	-1.89641632633437	0.44069267307412	-70.2892581583193	117.684776696431	-45.0160122373825	-87.8217335962869	
5229961	-6.27677446352013	-1.68069344800419	-1.90564964917337	0.453695230760354	-71.5973037804534	175.300661150237	-48.9882969799404	-128.490831904308	
5629958	-6.21561346815982	-1.77078277321714	-1.90783852618797	0.278298536694855	-71.1023348514165	-77.2903702615609	-49.6421058735302	-120.196997638866	
6029955	-6.23772044423556	-1.70493402224007	-1.88552506913567	0.236647068729837	-76.1571298837098	158.945737429481	-48.5191131926236	-129.345385695849	
6429952	-6.2680774508969	-1.93135366182047	-1.88980312484709	0.259205378759299	-58.1062391718289	40.5220382853445	-46.7682735723136	-125.793670397842	
6829949	-6.25689020819473	-2.01677758184251	-1.90176860804418	0.195871154928352	-74.8749754401496	112.500304122844	-47.512640399979	-91.0214554574155	
7229946	-6.25559049598434	-2.06764326012574	-1.89944330126369	0.189290218111751	-69.1528584848199	-60.3332142623835	-49.1043315347473	-113.808523035224	
7629943	-6.27565075169985	-2.26944554759252	-1.90049280633309	0.236181895000855	-65.6233541872629	-163.295380918559	-52.3309271240627	-123.02115475262	
8029940	-6.22431061057861	-2.43523322942623	-1.93043911473015	0.238128395154971	-68.0201241770689	146.629193713097	-48.2379861890902	-108.263317146897	
8429937	-6.24014130937158	-2.60375154492799	-1.88915922235226	0.15523401126595	-79.8226989005202	-133.066695210911	-47.7209605637608	-111.444504760054	
8829934	-6.24411938860638	-2.55152732403604	-1.89691294660375	0.107343534181018	-71.9215168124773	-122.160549764282	-48.7357274180847	-120.483268321336	
9229931	-6.23271828622979	-2.70564944294594	-1.89613241300703	0.177809788078383	-65.0176160602643	-113.949289136952	-49.7528089280983	-121.781572012392	
9629928	-6.22738250201684	-2.74424378675237	-1.89554256592827	0.118914271536344	-68.111784472783	-92.9940542405415	-50.0145529823942	-100.386942086953	
10029925	-6.23835510389928	-2.89801546802281	-1.89002148434863	0.0887985529860306	-69.7734623478418	148.784407493054	-46.4795890049646	-121.969801523021	
10429922	-6.21816163283314	-3.03654198774417	-1.89197622315368	-0.0979493750351441	-64.7012113086404	-122.378593424103	-50.4422470801737	-138.364771585866	
10829919	-6.237395813763	-3.00908651596064	-1.89309595125005	0.139146133220401	-61.9841094083332	137.090839446013	-48.9526337283414	-95.565505118769	
11229916	-6.23150855700842	-3.24147739637705	-1.89001148939628	-0.005168086465049	-65.9008695780461	160.722151463624	-50.8931552913502	-100.758271066496	
11629913	-6.23894644621638	-3.38396672939127	-1.89738366122478	-0.126727925505541	-64.359811709574	-86.1050677532477	-49.3591227268365	-109.394308534615	
12029910	-6.2408072970867	-3.3523382607789	-1.90083553691505	0.0449171401838192	-59.1229569346745	68.30221679023	-48.4594082542422	-115.327878978416	
12429907	-6.24350337501891	-3.60437507081089	-1.88246101651043	-0.0901955005745375	-66.1023082088737	-145.17622647308	-49.9838345814161	-72.706419120449	
12829904	-6.21303970482636	-3.54879054016936	-1.90281317537801	-0.0909682903137489	-62.1829983853364	49.4018532696233	-49.2415405837924	-95.6573725849833	
13229901	-6.22783089903559	-3.91227525547206	-1.89789249572656	-0.15833905647103	-58.4535270026781	-75.5204632078928	-48.6784828073254	-110.903295494656	
13629898	-6.23739655686139	-3.78147698462322	-1.87512498085183	-0.194356623081677	-76.782571488327	32.3616055568392	-46.3818667832803	-107.481944612997	
14029895	-6.21756735100644	-4.0427550818489	-1.88430534082013	-0.225343825047716	-66.2893875692471	-112.104809652958	-49.0914030509627	-112.427488015832	
14429892	-6.22964400933718	-4.20142107286399	-1.90257406276436	-0.232254067352387	-72.6458845851682	86.790002911844	-51.1470399980811	-59.5786425074522	
14829889	-6.20561941927116	-4.17772537006032	-1.89727604358032	-0.14257698892539	-63.4357644373435	-138.719064597383	-50.2924585147016	-78.3545626470006	
15229886	-6.20263128007616	-4.4738798317992	-1.89895214473463	-0.258613813982357	-72.4505664022974	175.48841999843	-49.0630446591766	-86.4971058929262	
15629883	-6.22769087982892	-4.36215466125343	-1.87591631789612	-0.143349372624868	-83.561746868688	-18.2347295946071	-49.2823316332608	-80.1304392628394	
16029880	-6.218016093424	-4.57327235709353	-1.876882991956	-0.236097251826388	-67.6633351450586	-40.4985154261213	-49.9541640571375	-64.3314956843357	
16429877	-6.24433075956545	-4.6486162985444	-1.89962756085114	-0.292740325933793	-65.1476995755269	-22.2841348886617	-50.6253322714615	-67.5692571145463	
16829874	-6.21693183983625	-4.69377592141106	-1.89070506983843	-0.147956231385665	-66.246060540827	-42.7913320520445	-48.0651003519534	-93.7134237081925	
17229871	-6.19753223387462	-4.7259957905013	-1.88105713058003	-0.232178765800273	-78.7157568869081	-85.5244579702479	-46.7947663072089	-70.2900317900721	
17629868	-6.21561430609693	-4.93169325677428	-1.89068182480477	-0.214082014622916	-64.2541461053567	123.169893489675	-54.3237794546776	-82.3951930846623	
18029865	-6.22745684879232	-5.06283755724853	-1.89567566911982	-0.245351717649618	-69.1742993513769	-7.50703389156903	-49.8831364859702	-96.9435471463156	
18429862	-6.19537956159243	-5.07819676649175	-1.87951219673409	-0.337872952199376	-87.2080420964224	-150.929564235905	-48.2881401060149	-78.5806145531889	
18829859	-6.1968103252715	-5.32452355768724	-1.87265738137187	-0.388383515624107	-60.2577816866777	15.0609396335418	-47.8491070900035	-57.6824716061356	
19229856	-6.21697586660276	-5.43827031635655	-1.88148684470691	-0.229539922567843	-60.6141987447357	16.3197939621126	-48.0222809323102	-55.9473899154332	
19629853	-6.20124552082143	-5.40448345682685	-1.8750440026795	-0.431698733127802	-60.5421953796299	-104.234696278841	-46.8690844055876	-84.8544547030955	
20029850	-6.20546067382515	-5.57946376362804	-1.8707276776763	-0.389462356956337	-69.9161277229249	170.532607651618	-49.5864611872743	-59.847994366559	
20429847	-6.18879923094144	-5.68079848763091	-1.89272229896065	-0.302578301920296	-66.8507834357829	-96.1981229722749	-47.9905611417018	-88.5785639560919	
20829844	-6.19583236879631	-5.72487628541707	-1.89665460971754	-0.365739274209162	-61.7588865998801	139.017197306309	-48.5322949303988	-74.4444147946934	
21229841	-6.18724582094001	-5.9012466407713	-1.88174376472309	-0.461297409093913	-58.7380686394967	38.2249831455634	-48.5688822501456	-61.7836568225701	
21629838	-6.18028459813458	-5.95512503064263	-1.87188554345402	-0.454521275057666	-70.0102109632036	178.576070706801	-46.1464719861657	-50.90346439891	
22029835	-6.19788385242759	-6.06607955636404	-1.90879674805046	-0.403976649669031	-55.869530912219	35.4041200904247	-45.755731616921	-97.6655007696134	
22429832	-6.19068187586617	-6.26766958167347	-1.88268437147407	-0.453493130039099	-63.8431355028159	-60.421306315023	-48.704788720372	-65.6860879294369	
22829829	-6.1487106133623	-6.23347091666985	-1.88225435953604	-0.508364183973326	-56.3714165258376	-22.8536715540643	-49.2213599841832	-59.1601502486076	
23229826	-6.18223016967755	-6.46329074297058	-1.89079191422524	-0.435291410633863	-74.2422107913332	-86.6648526445777	-48.711671243023	-43.6364266512828	
23629823	-6.17176173621545	-6.35686086057532	-1.88369261130908	-0.459817163780923	-59.2260577685767	-111.256121585325	-47.5549299600539	-71.2216434299801	
24029820	-6.19778400248232	-6.73709235668365	-1.87413986380516	-0.500758336598414	-62.1156198638563	142.799038539843	-46.498606990082	-42.2091952356121	
24429817	-6.17286433486695	-6.7935311258781	-1.85790064892023	-0.481438597098584	-61.2430769256723	-28.8620795422963	-46.4535664236962	-23.9740268004013	
24829814	-6.17329217982195	-6.66421548483461	-1.86566398354017	-0.432777089231566	-61.9902209866488	8.09322603748167	-49.8602649687586	-49.2349657420646	
25229811	-6.16124232389828	-7.08818991824971	-1.8604693949471	-0.445921473089304	-68.5122713066702	-27.6964715955086	-45.1762300534957	-68.1472671332668	
25629808	-6.14472433371153	-7.11001182811552	-1.87317404585481	-0.605304898317487	-57.1846897055282	-138.737594125865	-45.0888814743619	-52.4244784240774	
26029805	-6.1508549052427	-7.11247613100565	-1.85630467003955	-0.564390913622435	-67.0227881897311	65.0518590722921	-48.5922631775719	-68.1643217295019	
26429802	-6.17686648124578	-7.3830867734189	-1.85298974761689	-0.600958174892965	-62.8020673514226	29.7784604427878	-46.3631518134898	-46.7472701072338	
26829799	-6.1385161311007	-7.29275748471001	-1.8645987039325	-0.520847324394613	-61.7220901952683	-104.526551029734	-46.454547439695	-39.534792690318	
27229796	-6.15740143142341	-7.36491387342272	-1.86918134110201	-0.552259508855534	-63.2793682370756	94.9767189745689	-45.8674587132393	-40.8161789916713	
27629793	-6.15147290087129	-7.4820894490788	-1.86680858077532	-0.551748433373619	-74.1042333039329	89.064176275883	-47.2361354617418	-65.1172911467437	
28029790	-6.15756706244743	-7.53592865466498	-1.86538436912011	-0.550655189958697	-68.9767177120729	32.0820301977287	-45.3155475194828	-46.0786067152239	
28429787	-6.12883626349378	-7.66817190722468	-1.86493936583736	-0.61094597283684	-64.5425362748307	-59.9952268243507	-44.8230032584249	-38.7087924475084	
28829784	-6.10958320004193	-7.85379030290787	-1.84788256847315	-0.72642971811647	-62.3791682809212	-35.6603494621138	-45.1621650661926	-39.2082061314153	
29229781	-6.14258987524281	-7.84244432869703	-1.85450086144059	-0.671515959537084	-71.395505997226	110.629434652292	-44.3246894701267	-46.1436158778756	
29629778	-6.13601293311362	-7.87498454519994	-1.85829867073216	-0.602186058108647	-78.2781537965723	-135.32249476709	-43.8011464581888	-45.0360318848694	
30029775	-6.14862674906388	-7.96527328666931	-1.85984509674548	-0.742879398704661	-60.577390450226	-100.647516115148	-42.6062437445164	-28.4457011273986	
30429772	-6.13220711727422	-8.11303975620755	-1.84991788904834	-0.686748368883875	-67.3501521780974	118.929932832936	-45.0679137404045	-39.8123160364016	
30829769	-6.13694602499563	-8.27671600728618	-1.87451218929244	-0.676894746033802	-72.7613578551055	-178.924920155186	-42.4900643130894	-28.1333164763124	
31229766	-6.10432782883582	-8.33281371412613	-1.8446158114368	-0.603991586404085	-56.9282442229466	-131.443824235218	-45.3802258236019	-58.5263340500886	
31629763	-6.14761326419922	-8.655936308642	-1.86080225704124	-0.633585153400293	-62.0198492190907	-75.9739709402479	-44.1570650650938	-36.0043901420189	
32029760	-6.09294614072014	-8.5594589442841	-1.85530323780118	-0.684064376570749	-58.7637699722483	-52.4390937657014	-42.4319749801609	-31.8497070795238	
32429757	-6.10819271652353	-8.65292190452969	-1.85292433747574	-0.812487894773001	-73.9085714712951	102.702958496381	-43.0530462493864	-50.8953832124673	
32829754	-6.10232495527363	-8.86778497971845	-1.8380308711026	-0.697404746527846	-71.9885164791467	-132.076238362931	-41.6726716940846	-43.989883882851	
33229751	-6.12730475577923	-8.86491166738942	-1.86339281805841	-0.824621854051532	-69.7427818504346	74.5910949175833	-43.5321913954042	-33.8199583592687	
33629748	-6.13908069454225	-8.92956853641666	-1.85935154282086	-0.850718852129887	-56.9635880752392	30.4713729785295	-42.4696911842489	-31.0579845774046	
34029745	-6.08710594591834	-9.00261282700964	-1.84950322828834	-0.726987173440164	-71.6900111704592	-48.5999566774482	-43.4902619624261	-32.6195544404784	
34429742	-6.08785745169762	-9.12289749362136	-1.84507155287859	-0.739352658509379	-63.3696273900153	162.883363526855	-43.1148575330214	-25.7213245381245	
34829739	-6.12357013116439	-9.22523459633644	-1.85672939302667	-0.928215478780149	-61.5146671163099	103.783924054702	-42.2135231107413	-18.210075997347	
35229736	-6.10489209401607	-9.25148319227306	-1.8342468547461	-0.851053889798326	-60.2676995858985	4.53186879933219	-42.5381671148217	-28.6276739447476	
35629733	-6.10402869016203	-9.47636408458056	-1.85073435590087	-0.891341884376024	-63.7432309820562	-67.5887209935893	-43.2455010778867	-21.5885683679985	
36029730	-6.10635054245396	-9.44650231955097	-1.84928070937378	-0.972904778718559	-58.3874767376696	73.5164125198629	-45.620058690586	-28.1974435374622	
36429727	-6.06691231999408	-9.62252767328264	-1.83499849781558	-0.878825216953913	-63.9146484141112	-15.5827943403965	-44.57341406504	-6.74757939116	
36829724	-6.10080524556269	-9.63443682770635	-1.82998616026386	-0.85658476099964	-65.2241878009295	94.936993886432	-40.4988795507493	-18.5826914835494	
37229721	-6.09743641478601	-9.66930627980259	-1.83069760514095	-0.954877965205664	-90.3989682116794	-101.708801498331	-43.4030640180489	-31.107426941588	
37629718	-6.08665931988819	-9.94647602009301	-1.82396578387501	-0.890048848954147	-61.3468752570402	23.8101302179102	-42.5905342018026	-18.5803984387634	
38029715	-6.08308230738035	-9.77250885197759	-1.827875778863	-0.977865531997402	-65.3065653595519	55.6433936310711	-41.3739218308612	-22.5515143761893	
38429712	-6.05398056995674	-9.92226761050219	-1.82968200156559	-0.982118021985291	-67.479497265201	-12.6840927216948	-42.5753945916818	-12.4494244357114	
38829709	-6.09530378015246	-10.0289687404472	-1.82452805487183	-0.941630926549088	-66.0892793658589	30.8824150918317	-43.0320692015505	-22.689769299121	
39229706	-6.08167567891672	-10.2654120312892	-1.83899536422888	-1.04754206028078	-60.8646375391007	-26.5204237363027	-40.6039316070599	-24.7394760196421	
39629703	-6.04807829523651	-10.1341613078798	-1.83750450933531	-0.880207317456209	-58.1564039209635	-124.325006134591	-41.1772488775669	-17.9053917965925	
40029700	-6.09563568922866	-10.4125591283774	-1.82982329987501	-1.17812791787503	-62.2726689753455	153.122121249849	-41.7432796341885	-15.2778486917163	
40429697	-6.05976577846243	-10.4946804334523	-1.82522461390092	-1.04586848200142	-60.0691235254133	75.9404523971517	-41.6860741681987	-14.6777188861605	
40829694	-6.08636942833531	-10.4252632765357	-1.81187839128956	-1.12928977940839	-70.9134236742033	-138.904465108274	-40.7008260545045	-4.70473006913871	
41229691	-6.0692691041407	-10.3932963099187	-1.82063124044236	-1.14513066799823	-66.110876943726	-121.976490152729	-42.145869380809	-20.0127913809587	
41629688	-6.03065835805512	-10.4916327288687	-1.81938369861988	-1.1183973098343	-62.372171873093	-10.2487605152792	-43.2340672058729	-20.0646578203846	
42029685	-6.02530161605648	-10.7517703297052	-1.80001625139271	-1.10347120110323	-62.0451452144367	-115.783649298091	-40.7577944166108	-16.8477251864094	
42429682	-6.07712680885369	-10.8221847013262	-1.8161987030753	-1.10117185047567	-61.0275377722601	133.489438996623	-40.2334204460465	-22.5687031118731	
42829679	-6.04602042916737	-11.0099118455147	-1.80700773122694	-1.09526369555495	-59.5388121085219	178.43007231015	-40.9809122357766	-12.5269757049435	
43229676	-6.05131569419517	-10.902009564982	-1.80837671106296	-1.14984189025909	-76.3151112337238	-158.855201716278	-39.3553373038169	-9.56359896009725	
43629673	-6.07331414170489	-11.03460364947	-1.81534451491412	-1.13137408197175	-64.1126769194832	83.0665532229854	-40.4513663033586	-9.34980009370597	
44029670	-6.07088271367686	-10.935082121695	-1.81113016397899	-1.16606729468263	-63.0386339016316	-7.52283701791554	-40.6840920819413	-5.18165984944305	
44429667	-6.03651952624977	-11.1350253878407	-1.81478407896604	-1.25022618099136	-68.1011759813153	-48.5453772232038	-41.7798503566036	-3.18204757255434	
44829664	-6.03605173858306	-11.4242806977572	-1.81576605842722	-1.27024901517852	-57.9512100769407	60.6286995494842	-41.0257485600506	-16.5018035796642	
45229661	-6.03702706725818	-11.4715126947973	-1.78950174909437	-1.14061023834881	-57.0825998813302	-129.642641916282	-39.6139210565459	-8.93468382862301	
45629658	-6.06611999726362	-11.5321120397169	-1.78946083495042	-1.15727146270975	-58.7758837534701	1.02157117697999	-40.8282351641014	0.599702606354287	
46029655	-6.04115531377737	-11.4454851691452	-1.79784109184088	-1.24375094190628	-67.7087380697759	-122.866464688824	-40.0357944226213	-5.32474085018625	
46429652	-6.04394979652944	-11.4466679686567	-1.7884552638683	-1.30525045081606	-62.5918837051513	88.3803680059347	-40.6403491720689	-11.1903307744095	
46829649	-6.04576020502151	-11.5683936117719	-1.80935194100348	-1.33953072247956	-74.650912874998	85.6400909565981	-38.6994598228348	-10.0093052939038	
47229646	-6.04474940455093	-11.7765365076393	-1.78575268891459	-1.39393565465835	-62.3745247621592	107.8111308755	-38.7572878642983	-3.09493422102877	
47629643	-6.01941830442958	-11.8911564383583	-1.80584839866459	-1.33916871949295	-63.7132613436236	-46.1963188773722	-39.3771105314109	-3.46050277852911	
48029640	-6.05217534918537	-11.8937468175623	-1.78872513687492	-1.35842768322211	-68.5408419570525	29.4714288064478	-39.3778141001988	1.23062713863175	
48429637	-6.04114886891576	-12.1275341460128	-1.78231522293146	-1.34028613867099	-64.4236665360616	86.3127864118285	-40.9463969637174	-1.1913041960652	
48829634	-6.02152932996018	-12.0992556365734	-1.77044422375391	-1.42596631310724	-61.8137461430207	-162.237098093814	-39.4623154615453	6.62314296509724	
49229631	-6.0361643282956	-12.0408125593511	-1.7825384212397	-1.39511899280343	-58.8481474560756	-157.296363493729	-39.9103684487373	6.21315251051007	
49629628	-6.01647695933104	-12.0915928183968	-1.77128895738701	-1.33323510052132	-72.4753054460492	-91.6796153946079	-38.7494094769911	1.61797051385106	
50029625	-6.04301241249541	-12.2027807407389	-1.76436117665921	-1.43207241165296	-63.7616469926093	66.1769982562832	-38.3667123913428	4.81133658421792	
50429622	-6.01795466122114	-12.2194459398338	-1.76640278719445	-1.40692464657599	-65.5962034529589	-175.000820337474	-38.9796771081371	-0.771994477582777	
