!Keysight Technologies N9917A: A.08.18
!Date: Saturday, 27 May 2023 17:07:58
!Timezone: (GMT-07:00) Mountain Time (US & Canada)
!Model: N9917A
!Serial: MY52401314
!GPS Latitude: 
!GPS Longitude: 
!GPS TimeStamp: 0001-01-01 00:00:00Z
!GPS Seconds Since Last Read: 0
!CHECKSUM:0182046706
!Correction: S11(ON U)S21(ON U)S12(ON U)S22(ON U)
!S2P File: Measurements:S11,S21,S12,S22:
# Hz S DB R 50
30000	-8.16249649962796	-68.6235286196857	-42.709949628193	-116.582524889163	-48.3745990598885	91.5631216021115	-8.11231162242876	-63.5235810821513	
429997	-29.7631704322785	-100.023506882238	-60.9687167231425	-162.161292198985	-62.5684843873332	-153.202580691665	-29.2570797937144	-94.4704046904247	
829994	-33.35038267558	-111.937904444778	-69.3590065737858	92.0187571967705	-60.9460184406455	163.15190629259	-33.8208728501568	-100.262120605784	
1229991	-35.9916060854941	-118.854881500493	-66.5856190889433	145.563521440997	-61.5645331293229	-179.918895106346	-36.8335858933334	-104.720132188645	
1629988	-36.4035670623859	-123.346006834452	-60.8993117952479	153.884902048267	-66.2309505166439	167.327253679721	-39.0359790082583	-116.796443203821	
2029985	-38.5968148587591	-124.775530006229	-64.7984788449238	111.690457599527	-65.0855773001392	68.5331068173853	-40.4269389340384	-109.983162100003	
2429982	-39.9415437574661	-134.528108150997	-57.3991503976327	-123.324858603842	-72.1325758555501	-4.52354051109553	-45.4340775099258	-112.277885846511	
2829979	-41.6871887992803	-127.436145396363	-57.0775931492568	179.435045078551	-57.652556360288	-172.270411781987	-44.5127389910365	-123.606366268757	
3229976	-41.2960930928743	-137.52666429506	-72.4907540757729	167.522460203364	-62.4626483446666	-170.150328364152	-45.3879322947285	-113.665662456893	
3629973	-43.1268042322355	-142.274230047168	-80.0962438536322	56.8501384061327	-56.8203554640745	-170.620577431834	-44.3014800190626	-134.329361483686	
4029970	-42.2851934715216	-144.453759020605	-62.3586670439229	163.719672846969	-63.2109258622589	-84.0574762434101	-49.5543755126066	-123.364388707251	
4429967	-41.923474408666	-139.791192423587	-61.2039830764217	-109.941809896785	-61.7569314578426	148.316659367355	-46.5768661166249	-125.061279306904	
4829964	-44.0078560229267	-140.090488737336	-63.2586067887383	-154.547374541566	-60.501313808649	-175.766954063544	-46.3997825319672	-124.629628952225	
5229961	-42.4175361263879	-136.546265222987	-62.1444739939494	173.267303073486	-57.625151163188	168.600378071094	-48.8524423667143	-139.943101499626	
5629958	-42.5625737596248	-147.067186347761	-63.0515602704934	136.259225810571	-63.8278764360057	-153.628345310305	-47.6953720602324	-134.894982462607	
6029955	-41.6900690138067	-142.703535155008	-53.0384490097965	112.793910508045	-57.7747724548791	81.3319886544197	-47.1957954047291	-129.814244101204	
6429952	-41.6825723456728	-147.120885339259	-59.408759066863	133.475116932461	-59.1290793421821	140.302415416392	-46.8755866986692	-124.858411804748	
6829949	-42.438009844737	-147.956594631142	-61.2826615376735	114.613094394382	-67.5457850301123	-124.895199463379	-48.3426142284158	-101.755245593278	
7229946	-44.3976850992406	-147.343248102137	-58.5554721497205	120.798272537837	-69.4506707266567	168.381209052813	-44.0019050874534	-129.737653260909	
7629943	-41.9824025039991	-136.307968745415	-61.8347662295837	-153.461542879429	-62.0897922128919	165.478627741559	-47.7171947147092	-141.589398101981	
8029940	-44.4101588236077	-130.367616670125	-53.0783284063464	143.176715272787	-60.9732232583404	138.043699440245	-47.8307436743609	-119.830358682986	
8429937	-44.7539896503376	-132.287280630434	-59.9879452062679	104.812105187583	-58.7950624569239	-125.59554389538	-47.2984658050864	-122.89801169108	
8829934	-44.4812653395897	-156.275597136062	-55.6160835764791	128.127363511987	-63.7580335083014	77.3252411582014	-45.8945127810764	-137.237257514151	
9229931	-43.6498081226796	-134.489067366202	-64.7923753409178	-87.0022421014739	-73.392694675559	37.5750861767975	-50.541733086819	-138.576839962926	
9629928	-42.7688598590262	-136.562023619039	-62.3174082215822	153.457615137794	-60.9964344498053	-139.289904415539	-48.9535399555799	-131.887789937636	
10029925	-42.8431893763187	-128.209343011384	-60.7407853120349	-158.064038849223	-59.3432191341681	122.627469574644	-49.5070179051437	-145.593699470358	
10429922	-43.9076038487101	-124.580339881777	-53.8946781668829	130.414492115681	-57.540370639096	73.0869565492609	-49.794461505355	-140.598429414407	
10829919	-43.6211469147333	-136.780405032359	-57.0429945000508	133.087270729296	-55.7682589471854	169.942260158787	-49.940360740432	-102.726927239893	
11229916	-43.312368848276	-127.875688819756	-55.4537349136189	130.589206056503	-56.6572157813537	137.390517095924	-48.9131084793309	-136.910515511607	
11629913	-44.5085751798054	-131.663312546219	-71.5752439853119	-179.183007214162	-56.6982680170274	83.1250422883516	-50.24851919696	-124.901484199201	
12029910	-42.4582569206047	-139.807634855553	-54.4271778531925	135.214984308511	-60.5174095735241	-172.768135004592	-47.1941435547935	-118.02126823621	
12429907	-42.6615772635309	-140.841514319792	-74.5379707555931	23.3956384644761	-57.3896217355087	105.702916725226	-48.6010483920699	-107.181328171491	
12829904	-45.5209978711394	-117.689803027968	-73.6778140754016	145.008495551253	-63.9320457947815	85.3819146508896	-49.2736857948097	-144.215241597623	
13229901	-43.9556028078812	-134.586969542409	-59.4987051157122	43.6016886208103	-59.9127034540558	111.339265886355	-48.0840242627567	-131.57394822652	
13629898	-44.8367407133383	-136.557744252597	-66.1647060478355	-2.96698819057604	-59.0365498612064	111.769049316091	-47.2981036753537	-116.605654473554	
14029895	-44.2484227436397	-126.795753227365	-58.436341209004	115.359168762482	-67.9316703011478	-163.137591766219	-50.6467643899366	-131.990800781482	
14429892	-43.1779895560275	-126.301568177343	-56.7406220240462	84.0148983041679	-68.1211756583361	-174.927671724995	-47.4431697542738	-104.569665949613	
14829889	-42.8534788985342	-108.405629771922	-60.9064256325863	124.621965828588	-61.6944238049902	104.487120642631	-48.0124587001147	-111.647741746693	
15229886	-43.0824708322818	-109.182355924849	-64.2297260789182	130.176229599878	-57.3079064746469	137.942558105493	-49.8643068701239	-78.7937726999253	
15629883	-42.7042894339472	-122.518794235795	-54.3050943469971	156.120787704547	-62.9370272106477	-103.114824314347	-46.976212369597	-103.091933934931	
16029880	-43.9206961585116	-110.830841826069	-55.5009397194258	159.816251520644	-55.178943754534	54.8765353926561	-46.5522155640748	-133.255108164042	
16429877	-43.0030640542307	-121.650506975593	-58.3123982333515	83.0841743431695	-64.1424038031545	61.3540349551467	-53.2163411232779	-83.5386579613037	
16829874	-45.067700511103	-102.147986256983	-55.8338119834501	97.5631591474711	-53.8326217439537	141.738189026802	-48.5203671481595	-118.79445647797	
17229871	-43.1129553226373	-105.497599534344	-56.5399832786964	115.077933293071	-60.3977187168684	71.5495260143331	-47.6901440351371	-107.262853483428	
17629868	-44.0135909655652	-117.237161998045	-68.4538805800417	71.8849210877279	-57.6448821769052	65.9810165716501	-52.5801353229926	-109.726303785225	
18029865	-42.9934018539987	-103.971699764525	-56.9689941952463	85.78314099106	-59.0975186661179	107.345081979036	-46.3236945974669	-92.2652209034714	
18429862	-43.9816484920634	-116.143730041398	-62.9548375106851	123.332867306198	-56.8650516743502	100.192364037867	-48.74528163005	-98.0013436177742	
18829859	-43.3932451974193	-98.5562635783881	-65.1293833889499	-155.702852826882	-56.3470216800851	105.042403456432	-50.5149603254633	-98.5987422939313	
19229856	-41.9439096933272	-106.994529432503	-60.6801203509981	116.684739006565	-56.6553714036655	124.295486921653	-48.840882846725	-83.1175125983756	
19629853	-43.89812626164	-103.351772599321	-59.7184584245398	156.998293484527	-56.4374266050747	104.172634244706	-50.7749449620463	-126.990843077241	
20029850	-43.2891386030843	-104.998808034861	-60.2108611063294	89.3483005703052	-72.9780773215779	149.292107193064	-46.8537738073018	-75.3018415119024	
20429847	-44.5054985044541	-91.7230584805401	-56.5357439193322	63.4627053096999	-58.4664195209805	159.540377548758	-47.4564897289041	-111.056436892748	
20829844	-42.1091604195008	-101.856246517149	-52.3131569049448	107.448191542963	-53.7930002560461	118.265249319071	-47.4997416672082	-83.8486411242072	
21229841	-41.4848350691491	-95.0534946102617	-59.6076188050446	84.8096215532509	-57.8558640236507	125.241979814732	-47.773687087491	-113.112992086315	
21629838	-42.2679028362416	-97.8893827473997	-55.9350235292402	110.892884268673	-60.9128301028657	134.660653614405	-47.9594514973957	-89.3134421673818	
22029835	-43.6887825322747	-92.5991230784948	-59.7026199005752	50.5826350388465	-58.1784168158117	102.81066321241	-45.2377713602223	-87.3614145581981	
22429832	-41.3814968793847	-98.1890271216441	-56.7640751620537	114.018290305044	-62.0832806388005	93.1040915419668	-48.5552938464027	-98.6005039335501	
22829829	-44.0249286415794	-76.4006151149276	-56.264732863775	81.9354581440599	-60.7715123257225	106.536253494286	-47.5605961082676	-78.0241806492021	
23229826	-44.1011104315175	-90.6871162787375	-57.7075981822818	96.7190999055078	-59.0256488642068	97.0496780320254	-47.2174267988326	-73.6553312362443	
23629823	-43.7833703640507	-74.8713972427313	-53.9223241427437	109.838581585342	-59.210813788468	127.684350215068	-47.3980100153144	-69.6856812871278	
24029820	-43.084788561276	-92.7598482013887	-54.9528422391994	109.795265875158	-55.7109125985585	132.723646085278	-48.3110915711142	-66.5047877287194	
24429817	-42.1962624204035	-86.7364338777787	-59.7252330678496	121.150703435042	-54.63157848281	117.93047822447	-48.7122711366182	-31.2100230189402	
24829814	-41.6180649704241	-80.3853829962127	-57.3101299511792	76.0844874101776	-55.5607839833592	84.1547761234838	-51.5166238032729	-43.9181308437266	
25229811	-42.4366060643773	-81.2871175017915	-52.1030714062227	85.9777058772591	-55.778815121811	100.405501365457	-47.65799599136	-75.4836483035287	
25629808	-41.5294835365634	-71.602626321447	-59.8237428112094	92.0584667494212	-56.4239693082424	94.671055082327	-50.3415281599926	-45.3212368152744	
26029805	-41.2868481213621	-76.4890606626384	-52.9976121411495	126.20531675877	-54.1046940941189	83.3556348031666	-49.9600133543792	-59.9743861772682	
26429802	-43.0811426886087	-80.2162439587295	-53.0966508719641	126.533095177755	-56.9919307117803	60.141946336916	-47.9860971613322	-64.0754575992244	
26829799	-41.5799614907498	-76.5862031056436	-55.4548620445889	81.1631129387105	-56.5312289779819	90.2243499630449	-48.529279653457	-64.2793864869235	
27229796	-41.7634507628028	-78.4994088114601	-53.4882082596604	85.5132472115126	-53.8341114746478	116.334932338031	-46.4813317533665	-57.4362920789711	
27629793	-42.245381956399	-74.5682305905401	-54.2758780224483	60.8747938154639	-56.2912207945587	118.286817770881	-48.6695089688912	-64.5664088621075	
28029790	-41.7931521644391	-72.45285085891	-51.9325500480205	96.1117208473745	-53.7326225534889	85.8416239014417	-46.1366747567681	-57.4734074862895	
28429787	-41.6527252028231	-66.3962350401245	-57.5420117527708	141.822753186017	-55.1565823711506	107.499288404367	-46.6044566436701	-36.9137689166257	
28829784	-40.9436240215223	-61.313506191411	-58.9771313836265	54.8384891694352	-57.5727885551866	90.611187016292	-48.3110606986235	-36.1163912125058	
29229781	-40.3052726959317	-65.6284709349741	-52.291635797512	82.9228191545535	-55.0137466098657	104.526549859248	-44.6078014855766	-63.2747538998443	
29629778	-40.8607792949187	-59.5622035234942	-54.5172300684681	87.5815439164827	-57.5723379831787	113.001694169858	-43.3372480787259	-52.3893205352856	
30029775	-42.7944041517237	-64.182801404892	-50.7653919478091	76.0745974737586	-60.5606459966584	77.3811217158323	-45.2911691227407	-36.5707279901821	
30429772	-41.8484062936476	-54.9309388590889	-60.7440280102981	114.436130621571	-56.2869391327965	69.181755500253	-45.902643495017	-44.5966163102211	
30829769	-39.9454507909547	-62.9774760150951	-51.813980198059	91.2912306637962	-57.7875296206911	114.627049571014	-44.6863820035828	-42.837370354925	
31229766	-41.0355502004188	-64.7451042348312	-50.6466398535259	71.5444664015411	-52.3673858762828	116.220448361839	-45.4322891667986	-41.9293334589265	
31629763	-41.0015054584053	-50.9144120011311	-54.7134651801228	92.9071739313884	-51.7155174034684	70.5365179833263	-44.708511613101	-45.1440188084765	
32029760	-40.414519734041	-50.7506199017112	-50.9443204523288	99.9083489729721	-63.5977433518666	145.920276062897	-44.9316031723	-52.3824541650839	
32429757	-39.4211274451546	-59.3434610342431	-53.3634269071574	114.328688759392	-57.295191752515	99.2394690818223	-43.0684924468534	-48.0623660232253	
32829754	-39.7867606723379	-67.1262985154666	-55.0078950959452	116.7432419236	-51.2160873224342	104.421951190174	-44.3162522635175	-45.3747051066891	
33229751	-41.1272701014901	-56.7674664098395	-53.0508174322292	110.019007309587	-54.7276450034698	120.208363728546	-43.1134641009907	-39.6674368556217	
33629748	-41.6730049965952	-49.0991347145824	-56.4517207778755	96.1712873425157	-56.071594819661	105.677445775162	-44.3598270719845	-32.4454211232798	
34029745	-40.179173580394	-53.2791543991582	-52.9529486773279	86.9120391365567	-54.5798260197193	105.432058061222	-44.3371478342323	-26.3936252440859	
34429742	-39.9277813805856	-43.8573470037497	-49.0758216464599	101.589287613215	-55.4864637817477	86.7609697495396	-44.0130502992218	-45.0073793926669	
34829739	-40.7989625996159	-49.9253776818055	-53.1994364308234	90.7893384052009	-53.1351580607625	98.9300982189407	-43.4982941618312	-36.8418760538035	
35229736	-40.1531963873859	-52.839468948437	-60.0810165841868	134.935091247162	-53.8648544782448	77.9199794129768	-43.7369196755493	-44.9047367378349	
35629733	-39.2258557834983	-39.4365942554346	-53.9158224321001	80.9576186200873	-54.7933418043105	118.300496175504	-44.218992454589	-36.4272616545511	
36029730	-39.8683754589992	-45.6419718507094	-55.98023979544	99.4929851436043	-56.0375796945855	73.6346649112187	-45.5019849271958	-30.6960128255859	
36429727	-39.5873956776496	-46.1017679402349	-52.8985817443737	76.9036275040005	-54.6241181528233	113.549371647783	-43.5057189681553	-23.3158775885616	
36829724	-40.0389454249886	-39.0671731205575	-55.162838186968	86.79218207319	-52.1893262891805	82.3129388565552	-41.775134460606	-16.4263996172938	
37229721	-40.9260926147081	-38.6790144954931	-51.5831876380119	99.7800371268351	-57.7137995742456	98.8753842510777	-42.9620945493541	-23.7906084962136	
37629718	-39.7350127249399	-45.3531752269123	-55.7159508228567	68.0583871746941	-50.9511465305536	69.6481763026293	-43.6430303154892	-17.6190889824763	
38029715	-38.8809488567317	-37.4168167391742	-54.5634233727215	97.2142781365154	-57.8503859651864	91.5671630356027	-42.8989223627862	-22.9117173503699	
38429712	-40.4580000890534	-38.850231247583	-51.5257802563573	109.297754007364	-53.6661962836577	93.5553023320948	-43.2907734907086	-25.7575526306338	
38829709	-40.4311326853304	-38.1968032890675	-53.7027398143413	120.931162401727	-50.3085807995184	96.9803166156109	-43.3850563307431	-18.6817454041996	
39229706	-38.2547382770241	-31.4121304398144	-56.9571108170907	108.522405744128	-54.4189488282763	97.4757247358735	-41.0671045564327	-26.7262908353654	
39629703	-37.9624422415652	-33.6170086933563	-54.5024989443906	107.915567171682	-54.0262340784876	88.9923408823416	-42.8926614434718	-13.9297780168318	
40029700	-39.3535053117919	-32.0584549116356	-53.5773751720926	91.1348337038655	-50.6328606283314	106.415519853836	-41.5436728039871	-25.0130294388168	
40429697	-38.004010099255	-25.3222694435635	-50.3637573777824	108.710699787364	-52.9215053551187	74.3456663941516	-42.9902854444688	-17.768322034633	
40829694	-39.4751159770634	-33.4006722207576	-50.8559772609769	95.4428382056681	-55.4037609143706	88.2502251405468	-41.1116819271311	-9.06220699068997	
41229691	-39.5294304052215	-28.9238432920786	-53.3699820064001	85.5368525622217	-53.7358286880668	89.5411727270746	-43.1227661035356	-17.9890097740242	
41629688	-38.219094306621	-30.5223717062219	-52.0274173026455	103.742853711541	-53.4075704630567	92.2933317111793	-43.3300661071756	-24.8886530205498	
42029685	-37.93807473715	-25.524416974591	-52.6997448397166	100.723041761926	-50.1962440469752	97.3701895127719	-41.8203062201893	-29.2831636971659	
42429682	-39.3172467086404	-23.2738482248502	-49.1085880851391	96.5985662310718	-50.6529966602813	98.677512788102	-41.3708023580183	-13.0445979796935	
42829679	-38.3153816003445	-23.6729004572964	-57.8517305650094	113.348704034668	-52.3211417807749	95.8381964248971	-41.8285450800201	-10.5778320550675	
43229676	-38.7091607350024	-22.9439125970291	-50.1523367683026	104.681216380794	-52.5381575791424	92.330008927898	-40.9454545104182	-13.5436749543754	
43629673	-38.7878258211407	-22.6264420795561	-51.8134456765117	102.456681069523	-50.6329497657163	89.4933513992549	-41.7546097777073	-21.7825036923157	
44029670	-38.7989370803004	-24.2081822203997	-50.9691321744432	94.4256932367713	-52.4914571703588	91.3890393526922	-40.6433981979474	-2.40638786844537	
44429667	-37.3720503106235	-24.9315583221524	-49.8044678973989	88.7390794469452	-54.8653575357416	100.250975854366	-41.1553157116725	-4.12154227825416	
44829664	-37.6766709047077	-25.0912607693006	-53.2499308458165	77.296124722684	-53.2592720643347	98.5919449597836	-40.7380017948493	-12.5922729867909	
45229661	-37.3930635147965	-16.5140108933539	-50.3533386941056	96.2650692857578	-52.3486284692746	67.3514842475045	-40.9219229156191	-8.64370583707481	
45629658	-38.278221532247	-28.3143376121819	-53.8703584971837	83.0346837201799	-51.759819280226	84.8583528038697	-40.5845827719725	0.995361291999882	
46029655	-37.5004841217774	-15.1027046551242	-52.0135278432856	119.950122394617	-51.3974262945634	89.6757938679874	-40.582203220042	-1.40204048827039	
46429652	-38.3312582177135	-19.2194262088469	-50.8270632246968	79.9803462068769	-53.1881824564775	73.7387476127111	-40.7706885791562	-6.91851130452004	
46829649	-37.5247618929182	-17.0123064847148	-51.6712093934686	89.106698416097	-50.2404296107111	118.086644132886	-40.5898883296076	-11.1597524771476	
47229646	-36.6125703397098	-18.8048612918497	-51.5233668411522	59.728609805361	-52.1954053656451	100.284957354983	-39.3558426765703	1.84909222181623	
47629643	-37.7067281805213	-13.2066110239775	-57.6170315064047	97.602111173321	-49.7310567736265	99.0875425358916	-39.9319683591841	-6.47590523938912	
48029640	-38.4778692698246	-15.6283299842909	-55.9386197607285	61.9367565957431	-52.3697164460619	82.0654614864139	-39.6642107630949	6.16450049484699	
48429637	-36.7740102611778	-18.4761596625108	-52.2635031606057	94.059366662137	-53.341890810412	111.798763762043	-39.8023659995189	4.14579304920036	
48829634	-37.0338631157895	-14.0300978108046	-54.3712844813853	114.136159797362	-51.4117616071825	87.1876942752062	-39.4493057313952	8.90203401686425	
49229631	-37.3878766719336	-8.25237875594047	-49.6729354934075	98.4486567317807	-53.3316547729189	71.4830227847648	-39.8181424462527	3.77406917404281	
49629628	-37.5126969442004	-5.69644700589066	-49.230574889917	84.9544183825503	-50.8029274330098	92.5841923222169	-39.4477199527657	2.12022618635772	
50029625	-37.3396029051179	-9.27893308361854	-52.2854531543682	99.5931263473937	-52.1918557944953	90.0282408506072	-38.6063765126819	11.1481130730189	
50429622	-37.7201974490747	-10.555912303046	-54.2744570143066	114.963304008968	-50.2901526982744	94.1037013663326	-39.0408496669662	10.5226947460872	
50829619	-36.6884386731469	-11.3234565223493	-50.1606308674849	96.124503783999	-48.9801286717102	94.3078667517275	-39.3944594008682	-1.90969120105868	
