!Keysight Technologies N9917A: A.08.18
!Date: Saturday, 27 May 2023 16:39:24
!Timezone: (GMT-07:00) Mountain Time (US & Canada)
!Model: N9917A
!Serial: MY52401314
!GPS Latitude: 
!GPS Longitude: 
!GPS TimeStamp: 0001-01-01 00:00:00Z
!GPS Seconds Since Last Read: 0
!CHECKSUM:1795447084
!Correction: S11(ON U)S21(ON U)S12(ON U)S22(ON U)
!S2P File: Measurements:S11,S21,S12,S22:
# Hz S DB R 50
30000	-4.34498917997533	-19.1330067733948	6.0877035595955	48.2936667078769	-45.8462871837219	19.4805171763861	-8.47962239742296	-63.4315507761295	
429997	-6.21685486772131	-2.17002961556992	8.08929548198025	4.05827452762971	-71.9786854849254	143.570074447276	-29.5091394588487	-93.1321823870573	
829994	-6.23807610950347	-1.73383881206834	8.13740999402468	2.14706798112269	-73.0496766597671	-173.611324740899	-33.9818355417294	-98.1671142347056	
1229991	-6.25416273942178	-1.5583025549813	8.14319343613357	1.28490776872022	-65.886008427213	34.2366064982117	-36.7504575554883	-104.429221970099	
1629988	-6.27432439137015	-1.66066364873614	8.14309025327704	0.892475093704927	-66.1373723084873	22.5743119346382	-39.1576297684136	-108.566590893966	
2029985	-6.30122621753042	-1.54941919397971	8.14312280480753	0.567925533945543	-68.3978339127812	34.58979078014	-39.8360823233521	-116.315044520148	
2429982	-6.2602945148234	-0.93538494839936	8.17253357186809	0.733091046083629	-65.4550872485447	24.7939672047544	-43.1639086520403	-118.696880858625	
2829979	-6.2377513281453	-1.09718084412638	8.14598405393318	0.469833494619078	-59.3759134519246	-114.821907821115	-47.2973180731373	-120.47173406857	
3229976	-6.25936486805279	-1.2013654244609	8.1556254209275	0.415370829497586	-63.1408416593426	-3.84675092638852	-47.3160959425395	-106.060923882442	
3629973	-6.27036508550593	-1.12926086661856	8.16000701423066	0.301303446928519	-63.9576090881718	10.8543497237778	-42.2264129700918	-149.51615710018	
4029970	-6.25736657102653	-1.43190696728654	8.17461632694747	0.262054471723678	-68.095701761098	-27.568432112498	-45.6729420442156	-122.710239327584	
4429967	-6.25487708119732	-1.38171682023617	8.17528025197252	0.0294780202985371	-63.1518009340828	-25.8936101625723	-47.6234900451231	-128.221265082261	
4829964	-6.25267045764282	-1.61123859935162	8.17456463510045	0.0250042950984726	-69.046622311616	24.8355653673854	-45.7059916725558	-118.264408407423	
5229961	-6.27024938746487	-1.74454014084341	8.16880158244768	0.0120395049596681	-66.9751053376961	121.550489736924	-48.6783882684658	-131.937993292925	
5629958	-6.23467698988509	-1.72856491848508	8.17327095901072	-0.11618911147516	-68.0194635227632	-48.8592814858577	-46.9055438587413	-129.0931549589	
6029955	-6.23682667612793	-1.84285711302827	8.17391364778761	-0.160144729089373	-60.0157667206091	147.952916200635	-45.2694069464651	-127.508921865668	
6429952	-6.26226585336314	-1.97481962206053	8.18058648882092	-0.215828199261545	-74.8062349169386	39.3411185175328	-45.0448713756139	-133.313030079483	
6829949	-6.27249636977239	-2.0253974109033	8.17765002743477	-0.338213979007211	-66.272175222745	-17.1938584028838	-48.7676672475744	-112.198702926164	
7229946	-6.25412300946038	-1.93036962168416	8.18083338936566	-0.462515120139614	-67.5795355564063	-69.5875765435595	-49.0848625435978	-116.036976445377	
7629943	-6.3106775921722	-2.38880442320283	8.1842225482345	-0.373742989293495	-56.6279071229941	42.4026858133598	-44.4315293214714	-150.565350216359	
8029940	-6.2530122262945	-2.5095790659644	8.1592524283888	-0.539477407270742	-66.0977188111787	101.855110405375	-45.704822478978	-136.769217967646	
8429937	-6.2555364475278	-2.59965593722579	8.17765979474851	-0.499153766530113	-69.7270719233028	-5.89726301831569	-46.590599108689	-130.596724273714	
8829934	-6.22005766099299	-2.37949969467797	8.17912262877945	-0.588157890448618	-68.7884833863466	-69.4844869750456	-50.5155987705048	-125.98443193779	
9229931	-6.26731813291616	-2.71463178572186	8.17707631556884	-0.603808934376469	-74.6180125984473	114.257123165662	-50.7121310706025	-131.762982631225	
9629928	-6.23389157396377	-2.73563215286543	8.19510766516206	-0.64749385316161	-62.1746817866551	-84.7999066665638	-50.1870797107025	-109.969016822656	
10029925	-6.2399258658168	-2.86210106842549	8.17937142309113	-0.629606870003649	-53.4720215910939	-172.354651002086	-48.3370804793079	-95.1679575810763	
10429922	-6.24921641306312	-3.135874923483	8.18826080760436	-0.811237595725661	-67.2955282638721	-21.2626833035599	-47.3240990392509	-145.21901103698	
10829919	-6.23807018121687	-3.0180176968749	8.18349846224168	-0.751083799675086	-64.5381609415334	-90.3346424617009	-51.0288330708165	-107.315023725864	
11229916	-6.23191009963811	-3.39815232950879	8.18946904737652	-0.927067583391159	-71.0726615232608	98.5839106918535	-50.2888799409581	-139.075322840099	
11629913	-6.23543109072865	-3.38569188633971	8.17947321004826	-0.987644638840832	-63.0101987812771	-123.386344096616	-52.1820931653332	-111.520616919015	
12029910	-6.24613588612673	-3.27961778937003	8.18785150697191	-0.839130749312423	-62.9047653713017	-102.238097226905	-47.0989804265063	-102.932619588246	
12429907	-6.23437374960156	-3.65374516196374	8.19590885874434	-1.09686656596936	-67.0575013641879	16.5056555662748	-54.0239920016711	-153.539691582407	
12829904	-6.2163418316004	-3.57709519697565	8.17123638810636	-1.12529914502466	-65.1773148991283	-62.6329674198849	-47.8320502823792	-113.192642716351	
13229901	-6.25027053021827	-3.86581655463391	8.1850149464299	-1.19215584699003	-62.0091722810367	7.95343151072718	-47.5605241038497	-154.350772314193	
13629898	-6.25578061682624	-3.91368131680995	8.19228943334448	-1.30636519294251	-63.2773177398804	6.06910306577441	-47.5893302426437	-118.023260035638	
14029895	-6.23093363141514	-3.96298626102051	8.1895867101636	-1.22645717363087	-58.32837331245	-95.7189348048305	-48.7973864987765	-132.18091182843	
14429892	-6.21973264945771	-4.34014676738072	8.19455955332623	-1.33422480073156	-63.2458813046242	146.677017303879	-50.8934114489237	-118.062878502195	
14829889	-6.20342573879712	-4.37889451697007	8.18205427819054	-1.29901727669073	-82.6620959234706	-64.833184051847	-52.3705862958263	-125.562567117479	
15229886	-6.20591001486806	-4.43422242695222	8.18751254408035	-1.38169696308761	-62.3992149401251	63.9860002386381	-48.4775934218454	-116.340286342305	
15629883	-6.22024248729241	-4.38106110335107	8.19069452100279	-1.38086353566099	-68.9820358353142	30.4292451801478	-48.7529484526255	-115.671404991298	
16029880	-6.21939551875179	-4.65722877611947	8.19399766680144	-1.47963649207617	-69.9813583195866	79.4025253342286	-49.8136259805268	-87.8913504769649	
16429877	-6.22756015196407	-4.68088753017364	8.19391144137068	-1.49017318328002	-62.6899555352741	71.2745751318255	-49.650164365477	-90.6269890315245	
16829874	-6.18886370337813	-5.00842407696857	8.18082296504287	-1.54069204122617	-59.4550513321652	-169.771095681345	-45.8679393613435	-104.700525623796	
17229871	-6.20728077042097	-4.77527485110772	8.18798448724599	-1.54588375743675	-60.8521889841032	-1.83220380177827	-47.9430464610266	-91.7723870552517	
17629868	-6.17711113367185	-4.9414569355058	8.20287074017337	-1.57275927675138	-66.1824780667528	-12.0125253309476	-50.7253898986939	-100.486161256778	
18029865	-6.22075498019262	-5.03156527389947	8.18085963721215	-1.60054550226218	-72.7598939024423	152.496622884775	-48.5369610226101	-95.5939780304216	
18429862	-6.21081248942018	-5.13690378106399	8.19052997570766	-1.80317192411477	-64.7812100404823	140.551021493858	-49.5200853770964	-105.612019588289	
18829859	-6.2000737180944	-5.38116613084595	8.1950514222929	-1.87009791221411	-65.7230139995146	29.8546271938164	-48.2728439834507	-66.4001800094624	
19229856	-6.20478359193178	-5.43209642740395	8.19362069796051	-1.80779507705465	-59.740002115094	-21.8829613349162	-53.5136423119461	-64.9463726003443	
19629853	-6.19937626549562	-5.49079591015696	8.19457281037841	-1.95148866978023	-70.5364180436842	-178.531158834831	-48.582952846164	-90.829758458582	
20029850	-6.21775634983364	-5.56563439388444	8.19894965506076	-1.83998087611405	-62.6933423925362	166.698481743334	-49.5222397325322	-76.433855780942	
20429847	-6.19384589161657	-5.73412282810184	8.18520472986785	-1.97450331751313	-55.9239640053787	-55.221858303884	-53.8806676031458	-123.19444918652	
20829844	-6.19043986034445	-5.68197327793844	8.19578363692086	-2.02230474433859	-61.4984595988691	31.8868411631303	-47.2064199996751	-106.559246988001	
21229841	-6.1800692106253	-5.99117680975412	8.19269580828055	-2.12041577335456	-74.8153368623956	169.159949831637	-49.0449170767074	-96.1252833378409	
21629838	-6.1864463887732	-6.00727414294186	8.19425339894549	-2.05020135840749	-68.4795581261351	-139.779068427398	-47.7658217757551	-67.1355725248384	
22029835	-6.18819813288261	-6.03347619702462	8.16602145602159	-2.08051423102787	-57.5247616309397	148.433875790774	-47.5790150402337	-79.4071749782817	
22429832	-6.19461401942546	-6.32949366051643	8.19479644542465	-2.12907703290204	-66.1756011208321	101.193312697586	-49.063335833666	-86.8207134160188	
22829829	-6.18222932531479	-6.37207710967842	8.18963901352697	-2.23700165754551	-81.5942534598328	136.740137553841	-47.1606058203424	-95.0733061657771	
23229826	-6.1810580616326	-6.56283403869319	8.18161992027795	-2.26362271354024	-65.7752370897359	-120.697674206307	-48.9978597097672	-64.7096221181677	
23629823	-6.13807669697047	-6.43622615059661	8.1890947043672	-2.31411886432253	-58.3716401982699	-19.9970221141858	-48.7104535527065	-78.7502299878893	
24029820	-6.18251192837737	-6.83401248220181	8.18397671553609	-2.30801227377381	-64.1355360268272	175.517458943471	-46.2506516805346	-57.9996516076947	
24429817	-6.18013167098122	-6.82948535325394	8.19172139016534	-2.37353553318295	-63.9315512756952	-53.5249627661469	-48.6385278777966	-26.8923161187013	
24829814	-6.17315953783555	-6.95942213174492	8.19568747521494	-2.4168919271501	-58.329530012649	124.24833799107	-49.5026292909564	-80.5725227505801	
25229811	-6.15082134275986	-6.88970509077383	8.20235000885275	-2.44834419441264	-67.4180962382973	-108.861558526892	-47.1083769495506	-67.3683640192723	
25629808	-6.16073392176298	-7.20066859622783	8.18643606161176	-2.5496418705554	-55.6870140530241	89.3807461554616	-48.131716306292	-72.1787815076134	
26029805	-6.17688096466643	-7.33954107595389	8.19903976010211	-2.59238855788731	-60.1655824597109	24.0960862898878	-48.8274791733817	-60.5612336537063	
26429802	-6.16264668267979	-7.34474382395181	8.19898412161457	-2.71564836975518	-65.154666857417	143.674831741566	-48.2887652502766	-77.8746617816725	
26829799	-6.14554868762175	-7.5429595713323	8.2009645334881	-2.70490302885652	-63.4727336634306	114.387350197434	-46.2073027931047	-69.8568319174529	
27229796	-6.14843735122568	-7.6088098866094	8.19763141563898	-2.68311775272967	-67.4417846866143	138.513817887085	-48.7052106425961	-66.8770041929341	
27629793	-6.16062995830672	-7.59007440420691	8.19665487905983	-2.79498152954528	-69.3279268705742	120.626197634618	-46.4356553574298	-70.5674157901917	
28029790	-6.14625020422314	-7.78713985618737	8.18792840050421	-2.81670667427097	-64.7663379713665	72.8760080673979	-46.249923736277	-60.9110134015781	
28429787	-6.16656902911206	-7.68362746898349	8.19016322427903	-2.82037093460771	-66.386305469446	58.4888621513002	-44.3008173107474	-49.1821275897634	
28829784	-6.10764632822383	-7.8387014618789	8.19936865195571	-2.88999266676019	-74.0506661721956	-161.976571280468	-46.2134024083008	-36.9694858610048	
29229781	-6.15036596181558	-7.88583129712376	8.18872592897473	-2.96358337231481	-57.3698221979193	13.0247330295577	-47.6931311973229	-53.3857026651989	
29629778	-6.10552080230848	-7.79702296842365	8.18900822333364	-2.9133721946901	-61.7709387954448	-17.6297803426718	-44.4955352103353	-48.1904180084649	
30029775	-6.13704744063589	-8.17434442455602	8.18804685728136	-3.05272068207344	-67.312550908147	122.24055411179	-44.5129146194976	-42.2602549552012	
30429772	-6.15770264264628	-8.38752247147776	8.19471757351907	-3.18573412861591	-66.493803183338	16.146911363178	-50.159326319842	-69.8606055542893	
30829769	-6.11127488554632	-8.46538437240423	8.18995773716321	-3.07762409164387	-60.1778736654428	-105.791973567563	-44.4020527032054	-34.9855811258513	
31229766	-6.13737685930362	-8.31234651239026	8.18453468895343	-3.0719943273871	-64.8222294901009	-23.8715405665189	-46.2578183906338	-49.0054676948188	
31629763	-6.12043686984236	-8.66291139825701	8.18107048433322	-3.18529453100038	-59.2120587452174	-97.6623388664297	-45.1044138263756	-32.9467720804882	
32029760	-6.11200495121971	-8.5434105374727	8.1824754132188	-3.2223894520605	-57.6010827838804	-0.878130563183639	-43.5152175240518	-39.3287306085899	
32429757	-6.09457009790474	-8.88635997305931	8.18934908194083	-3.29985855271527	-63.2192026979715	-92.5611871197803	-45.2123785416807	-50.0894917861154	
32829754	-6.1156030958873	-9.02904299905669	8.19900958661663	-3.31960016990433	-69.2691148714539	28.0590348572983	-45.149955267732	-44.1902528284817	
33229751	-6.16515539618257	-9.04358903532095	8.17948774812708	-3.51165879671552	-63.8679883892442	125.467636342856	-44.7774319239612	-37.5777951658392	
33629748	-6.12751270981592	-8.97728861578986	8.18689403210819	-3.52296819940032	-65.0359828615307	16.1201770922534	-46.2883425170126	-28.8612183686635	
34029745	-6.08529162918105	-9.1516883776901	8.19264270333898	-3.40206781577514	-60.9856153608799	-55.3044196036029	-43.7889018394126	-39.3199686393463	
34429742	-6.09162100697581	-9.22585613661087	8.19570613765605	-3.51574652591241	-68.1755549068207	-144.311696292988	-43.7480088358565	-45.8005124090009	
34829739	-6.10288823237131	-9.14567654536	8.1934250573394	-3.60211272677516	-70.6863516293198	-64.9536787258625	-47.3746973368788	-36.4823501633966	
35229736	-6.10359426029453	-9.23356587004567	8.18431097127453	-3.62772426856547	-53.4125954412419	55.4611788448786	-46.7717283160599	-31.1318018026043	
35629733	-6.09870017671839	-9.63977438753077	8.17246448959144	-3.68974359807902	-62.4302674358003	-160.644919167383	-45.8695036059635	-26.9625050967553	
36029730	-6.08106896208182	-9.41132654561302	8.18637131073953	-3.72490731789924	-66.2927690177269	-114.711716282842	-44.0092585054194	-31.0366457842846	
36429727	-6.0842774450157	-9.67695509377344	8.19129721261731	-3.71182695568515	-67.4669191403632	-128.545879362635	-44.0536998067988	-9.64643355584834	
36829724	-6.08517853577244	-9.74273774004597	8.19964079736986	-3.80379826222973	-73.1607971542741	-156.74751855039	-43.354595585187	-18.7886259786095	
37229721	-6.10370629265868	-9.61922056083557	8.19840041067646	-3.87734171981807	-65.4224036376122	26.9111977572045	-44.745729752386	-25.2561454261518	
37629718	-6.06532846840909	-9.86516162321544	8.18942007331637	-3.89518696766001	-60.7600490592434	-79.5544490132874	-43.2197908243449	-17.2821035952429	
38029715	-6.07650679402368	-10.0292071223466	8.18727693113539	-4.01690282686183	-67.0796379016837	30.9064189724144	-42.0036370444331	-23.9219549475685	
38429712	-6.09876504194519	-10.0365833704436	8.19189688512915	-4.09454953564574	-58.582332829081	155.421849755615	-44.7340641734552	-27.2218660506198	
38829709	-6.10159718195513	-10.1773405298896	8.18368935609032	-3.94544680493417	-67.1457663140492	171.551189227721	-43.7409445776886	-11.4989595615347	
39229706	-6.0618804481143	-10.1075195672711	8.18162532707046	-4.10653088571192	-56.5350986654314	-77.7271279581925	-41.9444274940082	-15.7511376018172	
39629703	-6.05791668831571	-10.1720190919133	8.19199209474649	-4.0296294673636	-66.31819236662	-75.3563147075389	-41.9744703546692	-25.9604008739871	
40029700	-6.09196896026207	-10.3443162259188	8.19890722620348	-4.34850548197291	-59.1487744686787	63.7315972598295	-44.8207334997475	-22.990252892878	
40429697	-6.07444274290792	-10.6077511270033	8.1828232918071	-4.24595206711036	-59.3075880950893	158.082714297616	-45.9060131401084	-13.5794076895418	
40829694	-6.06263625923496	-10.4238397212421	8.21043137381838	-4.32851362526554	-63.9268565950104	-34.7008954888242	-40.5376105155119	-10.4020943275342	
41229691	-6.08592294727694	-10.6675852882533	8.18657660164843	-4.33030061258753	-67.2189471197096	45.2763154971308	-41.5622835179102	-11.0729892328319	
41629688	-6.04708867105492	-10.7393005423484	8.18966874168797	-4.39655597791516	-54.8171321977546	-166.268697847759	-45.0992240619762	-17.3981030364534	
42029685	-6.01838016785511	-10.7500223191083	8.18952872279465	-4.33227805689083	-56.8493036187348	-78.8015198657722	-41.6663627682889	-14.854394528827	
42429682	-6.05073849451801	-10.7503336636014	8.19854276590024	-4.42968074088264	-62.4262026320057	-43.2398754648404	-41.0204633678352	-11.8268918972021	
42829679	-6.05753264428242	-10.8635536571987	8.19783670149387	-4.43237586875395	-63.0584668889334	19.3107466661976	-40.5715511086374	-1.72976371332706	
43229676	-6.05762538142169	-10.9069003891335	8.18937830258044	-4.53380624404576	-68.2052069491744	-120.491751572516	-40.1926170105564	-14.3601857434674	
43629673	-6.05773769898823	-11.0782925989465	8.1901715235016	-4.6420653918006	-57.1858624427667	100.596472064784	-44.0524583625976	-4.66247260818527	
44029670	-6.0647062376845	-11.1760665361117	8.18867739022881	-4.62478319317486	-72.6459684108836	-43.858994904195	-41.5279524847874	-2.9488061337214	
44429667	-6.04366668143232	-11.24484142948	8.19166135171638	-4.75855114470183	-64.3417856214417	168.933774130106	-42.038171850527	-8.94185757201267	
44829664	-6.05837220699572	-11.3602834681122	8.19107494949563	-4.73852664486402	-55.2612355541654	41.6430626722657	-40.9158312560356	-9.98308809588567	
45229661	-6.03034390123631	-11.4391321543677	8.20149105041576	-4.71752921235788	-56.6677737343443	-24.115474317523	-40.4238786917632	4.39093451068475	
45629658	-6.05818983617432	-11.7252629761077	8.19666334916705	-4.78443998615908	-67.5418105697195	-179.497936672834	-41.5392142304139	-3.47625072788645	
46029655	-6.0245863082697	-11.4283706047724	8.19756270034685	-4.85768274405323	-60.4103358868953	0.80979094252509	-41.1895295089229	-2.70082409385091	
46429652	-6.03888875449444	-11.7421418180627	8.20159646148657	-4.91551695884279	-69.5710674895628	-36.7813912200525	-40.3758545134809	-2.69367303174322	
46829649	-6.02702150989578	-11.6947222074987	8.19029323782024	-5.03345524933721	-57.3361987612441	-26.6926819784679	-39.5964482021217	-10.0010283810195	
47229646	-6.02755718892257	-12.0102498628304	8.20610607610575	-5.07264677021134	-76.4244135590306	-147.871419957502	-39.2729019250792	-1.86357121151383	
47629643	-6.05227482609299	-11.9300159884221	8.1803560702193	-5.07895131805311	-63.2937711133696	105.294679668334	-40.0936002944889	-3.63035455884658	
48029640	-6.01328644084479	-11.9052803562669	8.18868752016427	-5.1750752080267	-66.9401136400864	38.1431344100419	-39.9252580134774	2.58971231090867	
48429637	-6.00554974219769	-12.0452839064991	8.19542056117859	-5.14296134120883	-69.7807550240652	-42.1213842875128	-40.6804991613921	-0.0241899397036743	
48829634	-6.04068471490352	-12.22581115809	8.20504164779491	-5.177043679296	-65.3458556097742	120.084888069158	-39.9499731696617	5.71678895980342	
49229631	-6.03127897784427	-12.1057433519099	8.19659081515152	-5.25084289804312	-66.3776698098542	113.48941061245	-40.7484776952134	0.265277151578205	
49629628	-6.04277774079727	-12.0872906068937	8.20049093092798	-5.30286247300951	-85.974003194894	30.1574774951909	-39.9915156096884	7.55710050656486	
50029625	-6.05593837292781	-12.3453100836408	8.1985931141974	-5.32391716062662	-65.7605946574407	-157.20752324244	-39.4494192325418	8.20988352034542	
50429622	-6.01026294888623	-12.269729341243	8.20184386668476	-5.32384066823896	-63.9093644782525	-64.1492809493237	-39.176861178297	8.51361958322131	
50829619	-6.02079865747465	-12.5296769038679	8.19088684553775	-5.46693046563234	-63.6962853913335	-21.0920906756168	-39.8018368066721	6.12293606628344	
