!Keysight Technologies N9917A: A.08.18
!Date: Saturday, 27 May 2023 16:45:05
!Timezone: (GMT-07:00) Mountain Time (US & Canada)
!Model: N9917A
!Serial: MY52401314
!GPS Latitude: 
!GPS Longitude: 
!GPS TimeStamp: 0001-01-01 00:00:00Z
!GPS Seconds Since Last Read: 0
!CHECKSUM:1066206872
!Correction: S11(ON U)S21(ON U)S12(ON U)S22(ON U)
!S2P File: Measurements:S11,S21,S12,S22:
# Hz S DB R 50
30000	-4.18848797059344	-18.4968180175697	6.01807846051615	-130.143040795788	-51.1522101534161	68.9882227803792	-8.16481583973255	-61.6024892739339	
429997	-6.23491677160888	-2.32321759624903	8.05961806523147	-175.955178020649	-64.492637625526	-88.3663870592565	-29.1432214095417	-92.7246818649009	
829994	-6.24722792260223	-1.73970639964325	8.10982180548592	-177.907124030821	-66.2542000539537	155.688765944114	-34.010743966712	-97.9536139643065	
1229991	-6.2674890506165	-1.4640691941127	8.10950528417066	-178.757170394904	-63.5220330518664	-78.1987902583969	-35.8987429545867	-97.419180408881	
1629988	-6.28053965302307	-1.47411231813914	8.10623672251174	-179.171251540185	-73.5916586018585	-45.5624163128415	-38.7454071682825	-98.8336277009397	
2029985	-6.27744570137422	-1.50268566461635	8.11878518466061	-179.525930931138	-73.6342275698993	-60.2085927360422	-39.8251088897591	-102.059617426498	
2429982	-6.25739781936305	-0.954816644581197	8.13059337465213	-179.438150002763	-65.1015433010083	22.5845468955766	-45.5133869188829	-108.797698231541	
2829979	-6.23901855960353	-1.08799374803108	8.12498796565029	-179.682927008101	-62.5367300616205	-170.349852340931	-44.2886951588203	-116.918453336087	
3229976	-6.2637109963059	-1.29673306000816	8.13688565949701	-179.802213569146	-64.206083640149	-70.3448769653886	-45.1636421871766	-86.7127973614816	
3629973	-6.25401211089683	-1.17204788539531	8.13019363010604	-179.961881806095	-64.8668864674972	137.013185882123	-45.7061726087644	-135.635899663009	
4029970	-6.26952842718826	-1.29685415525202	8.13343243646401	-179.985952323571	-70.1795445267379	-140.456204707951	-48.5414623727042	-101.718942470723	
4429967	-6.24739892795825	-1.48155003167928	8.14083715003856	179.751359783311	-59.0528757205788	-72.8762338446601	-47.7014094233544	-104.629441477141	
4829964	-6.24025093669725	-1.36859742729816	8.14645790069373	179.749268773283	-64.1783755130442	-145.021863684905	-48.9617347847019	-104.213372552939	
5229961	-6.25695376149455	-1.44920290241492	8.14217283784972	179.651953652446	-56.5021739490695	90.0367387726089	-60.0005639337713	-131.168063572152	
5629958	-6.23517231496849	-1.8260084687304	8.13984634296281	179.533024459024	-61.3320788125659	15.3614571657603	-49.0340637489346	-113.60806988874	
6029955	-6.25426047428608	-1.77416951858912	8.14721936945955	179.415322263708	-65.3212267449581	90.1724955896434	-48.3467643755064	-124.232295360338	
6429952	-6.26485695951892	-2.00881558677101	8.1560101294921	179.344213223166	-68.9018345001244	139.440937761768	-50.7019571716119	-122.726274406022	
6829949	-6.25783547654817	-2.04199746360663	8.14146134549378	179.266812841274	-65.0815387118714	15.3967776865093	-49.80192294134	-86.9601238400436	
7229946	-6.24582411373792	-2.20065388534716	8.14893195756437	179.064912223514	-69.8186528811045	160.231372166044	-48.8704099491317	-99.2369057546416	
7629943	-6.2517395335279	-2.35657971218422	8.14991051438505	179.116041003243	-74.2710307097499	-82.2038726981855	-55.844049668836	-121.624512513602	
8029940	-6.20932964899924	-2.31281649217836	8.12990298420187	178.932668102392	-68.1348282880005	52.8528373890321	-47.8970622111395	-95.6895838938356	
8429937	-6.25036774359736	-2.54932024359572	8.15466938515546	178.902213060637	-64.3711053937845	-52.2183949241603	-51.2818825621135	-104.941929623078	
8829934	-6.241733089316	-2.39664327604364	8.15099083051944	178.800794772584	-70.4196274383246	-128.745279871037	-48.0478045115874	-133.272249190274	
9229931	-6.23550673318074	-2.5810866593932	8.15202775425595	178.72749041972	-58.9221356773225	64.6506311325432	-54.9402868594524	-116.783236406943	
9629928	-6.23326071743049	-2.88238923320426	8.17345709740878	178.664528215939	-61.2117229650338	35.961891290574	-48.2114026361262	-102.687203305121	
10029925	-6.2462538826465	-2.95237562973904	8.15965680716302	178.65167124403	-67.3651266871144	166.796735890645	-46.5481800152333	-136.215846552924	
10429922	-6.22625226306215	-3.20091190618844	8.16173432599635	178.461610380036	-58.9812779320609	-87.9769121996352	-48.025581593032	-115.312080700192	
10829919	-6.23989355039558	-3.07035045441166	8.15510458339563	178.508814821012	-70.3322938635409	64.159977300166	-50.1066732866031	-82.0462912287711	
11229916	-6.25244813505846	-3.32264204751489	8.16261575049592	178.356024592704	-70.0533003384749	167.015607572733	-48.9314810485267	-103.747036191191	
11629913	-6.23914814809936	-3.24505235887217	8.15168456679524	178.249069594665	-77.9408995657954	-124.764277185248	-50.6455601772338	-103.300396612417	
12029910	-6.24489650541785	-3.41503954018335	8.14687786396131	178.261924367406	-60.8922129102846	23.1195106561741	-47.9886274927729	-85.4448103175107	
12429907	-6.25814189710055	-3.74108945028908	8.15931600931806	178.087168247641	-72.0714725753884	-53.6524143754944	-50.2792430092026	-88.9044381029338	
12829904	-6.23580515784229	-3.5740171746777	8.14854269936337	178.046597489308	-68.1919208465616	91.6598736924968	-49.6306294421433	-89.4575565248398	
13229901	-6.23720405653509	-3.80913246404056	8.15018048687081	178.016134100174	-72.3002040326959	23.6989808997762	-49.4709714707538	-112.550659914848	
13629898	-6.23155519889331	-3.89264191032534	8.15967843313772	177.837367005558	-64.1845370825656	21.6058220385526	-47.2707261169705	-88.6832300297482	
14029895	-6.24505096413025	-4.07925064532837	8.15564205524741	177.776572983935	-71.4906202811391	132.695250443132	-50.8077135224441	-114.124341146869	
14429892	-6.22402960768954	-4.24608004301427	8.16207435743259	177.664838157947	-69.4957113436013	146.813945738287	-46.4275885734966	-97.9608125700438	
14829889	-6.20906738776767	-4.29821585184038	8.15733409164335	177.717738678306	-66.2964730837891	74.9978118743556	-51.3515079519639	-98.960637188278	
15229886	-6.21963145730288	-4.32207216372529	8.14298225832547	177.599311265437	-61.3153322869612	175.746972898957	-52.6985117089421	-80.6953932137343	
15629883	-6.22505566901849	-4.44025843096369	8.16284880641056	177.524883152824	-65.3074979093331	-75.466135163687	-49.9038471972153	-91.5058846152312	
16029880	-6.19709275032161	-4.48255249078597	8.1653759588642	177.42045069881	-67.359428540994	54.0307935742553	-49.9200328564572	-77.669285286931	
16429877	-6.2187859423019	-4.73008439042396	8.1577699762499	177.392127638737	-57.9878880389068	-7.23468256610667	-46.7849506711496	-62.3370919751713	
16829874	-6.21062818430045	-4.81490102256802	8.1516437547217	177.322039855807	-75.0597109571321	73.1853429019365	-49.5122198631553	-85.3601655449335	
17229871	-6.19533379361883	-4.77166240337694	8.16304528338208	177.237474093552	-67.8036284157205	142.193475665198	-47.8198906143842	-80.1694400115693	
17629868	-6.18308005847298	-4.99374056558645	8.16822877724348	177.193060788685	-68.1273945392246	-13.0102939833021	-51.0718972081615	-95.451406727591	
18029865	-6.19884135217632	-4.9752824361721	8.15047041176367	177.123801357039	-68.2463680702966	130.497612355725	-48.5841023793793	-71.7910378207903	
18429862	-6.21647339382557	-5.13040673281058	8.16207956969092	176.959547113042	-69.4709192866185	32.99327122077	-48.4801628242352	-94.5878057180674	
18829859	-6.1927952365666	-5.41984740070894	8.16222994405627	176.853209893931	-60.243379236505	61.9128575646331	-46.10390474181	-40.7136915098654	
19229856	-6.20675254592976	-5.62665755013376	8.16392440915786	176.877851642557	-91.0456658886442	-60.6036999628517	-50.2718941730353	-71.226250845366	
19629853	-6.18374807080161	-5.68265374294589	8.16244166206387	176.650108932427	-68.4116111770397	-8.18390330967859	-48.4669574962996	-77.9891141382298	
20029850	-6.19043145128663	-5.68569875194837	8.17157410678005	176.709557912079	-63.7337710926341	17.9132285862729	-47.9503773545291	-63.6248464421683	
20429847	-6.18673636564401	-5.62292987983925	8.15056504910364	176.650774526647	-65.8685586233581	152.065631158006	-48.2763945391929	-91.9486064716165	
20829844	-6.1799341570424	-5.71974032059611	8.16074418662588	176.557872167441	-76.6501576303328	-140.670097930854	-48.5128021467646	-69.7998842302353	
21229841	-6.18066704209779	-5.8839167305681	8.15860606905943	176.443803115729	-60.9248838383541	-122.092771140994	-46.1417517418144	-85.6185373107114	
21629838	-6.19341694688508	-5.99785907987395	8.1674748213654	176.353310484985	-63.0642081211478	-53.974503624935	-47.816640795183	-63.3402850046427	
22029835	-6.17848646429088	-6.06682748098254	8.14690703635032	176.326495439494	-63.5141718700516	-126.623356587978	-46.5549596566463	-81.9024253885593	
22429832	-6.18159931411142	-6.19595895234935	8.16458783540446	176.301446292185	-83.7214726137238	12.7480349139212	-47.0120707020137	-80.2233501191419	
22829829	-6.16963860170196	-6.2138258850278	8.15750822041843	176.123881698654	-63.8901857740535	-150.866058806054	-49.8037610020675	-60.1972360429336	
23229826	-6.18609491930751	-6.45232851502178	8.15446970811771	176.092277554931	-66.5950956434768	-163.471206674634	-49.0320583938303	-55.4635043267312	
23629823	-6.1689734684767	-6.48397191457999	8.15236807277963	176.063280471087	-61.2626290657007	-11.1562035096475	-46.5284483181359	-60.9183658036976	
24029820	-6.17438077359887	-6.67582365355595	8.16292287266706	176.01830817807	-60.753446627923	-32.6109742864509	-44.8858754814344	-49.2509805965471	
24429817	-6.18923966349391	-6.63008120355999	8.15628229929202	175.937070396338	-68.9517903206591	148.339582757891	-46.0677568335449	-21.6884591306156	
24829814	-6.19010052595325	-6.86234534010743	8.15801127149753	175.855592952866	-57.0500256171127	-149.305401435653	-52.0656030569742	-64.0784354384382	
25229811	-6.1511094370251	-6.96145160061648	8.17118528797698	175.808539126026	-65.5300230822019	-69.9088398899585	-46.6971657594637	-64.1889011686387	
25629808	-6.13409249498436	-7.17513997721895	8.15996063785005	175.640980519499	-63.1076448696164	-55.2413005851792	-47.7488285568504	-58.1189830351961	
26029805	-6.12928429289312	-7.1905715866384	8.16006386793973	175.587584331905	-57.671175937074	104.447722189336	-47.0726229346467	-42.5739514100643	
26429802	-6.17760442731874	-7.28672294622607	8.16686758747199	175.462692847058	-67.8853652426908	32.9084952222542	-47.7962223173756	-57.8793660102718	
26829799	-6.15632078642322	-7.47069028073973	8.16141873632756	175.459851632632	-58.6515603550358	-93.041693082924	-49.266554385491	-48.0242003487381	
27229796	-6.14510369367903	-7.45966986590453	8.15618718964961	175.436820479617	-69.8800145277592	97.0419320856849	-45.2170891755662	-47.9440044057624	
27629793	-6.14317607030782	-7.46740667053984	8.16077181288912	175.334392513536	-75.9700167359971	78.5909287346095	-45.5976749143835	-66.1473732485502	
28029790	-6.14557072510952	-7.63812909442368	8.15886887264348	175.266760094748	-69.2958940925628	122.838213818063	-46.1116275518962	-57.3693504658133	
28429787	-6.14217489684859	-7.64228446323814	8.1574425172979	175.191230286478	-69.4193726907507	59.7383368532953	-45.1747112896633	-34.0059587131039	
28829784	-6.12451439264452	-7.99252302720394	8.15914633255965	175.034895194188	-66.0786457090692	39.470244504851	-45.716426425812	-43.2642957934119	
29229781	-6.14976321310275	-8.02681620951883	8.14303041690815	175.009213053043	-59.39543751365	-4.25435270674179	-45.4033006572333	-56.8853991450776	
29629778	-6.11435137287219	-8.02450167299028	8.15484948661158	174.953881171582	-65.7907720959083	159.273392142733	-41.9658833910741	-43.9915814248146	
30029775	-6.14882022163487	-7.92161578642796	8.15533496952285	174.842398363916	-65.0865020614362	-34.7822377669752	-43.6730435841962	-39.8950971406126	
30429772	-6.1267541870411	-8.24755925558572	8.16120853409329	174.73643450396	-74.3736282521419	132.262882798733	-47.0910276288724	-44.3062876284727	
30829769	-6.14258944202075	-8.57059346356299	8.14829993314338	174.738801736362	-69.0378157789451	-99.0116006730249	-44.944204950036	-36.7502338247023	
31229766	-6.12941291858423	-8.36122185127033	8.13570586823556	174.759329882233	-59.0207249067375	-150.068049115043	-47.1971206340003	-34.0545625916625	
31629763	-6.13536254644659	-8.67297117405953	8.14649672208068	174.608736911114	-70.5942776767506	-31.8555875439867	-42.461934265319	-30.7666272421164	
32029760	-6.12855293663376	-8.46690718349185	8.14454490123842	174.491490593195	-64.8076559541005	-130.701485653045	-43.3138514818566	-34.0673588146482	
32429757	-6.10227698471919	-8.68636215256396	8.15255490426053	174.389437265884	-66.281000411427	-73.2766770963448	-43.5833665203229	-50.9376000457036	
32829754	-6.11334911274566	-9.11628285230167	8.15808647348015	174.357112363686	-63.641352933136	-72.3574329571374	-45.3311566758262	-49.6952039699487	
33229751	-6.14232001720177	-8.76948988071949	8.14898230649645	174.223143393539	-80.5857003376891	-120.99246792116	-42.1005836652804	-24.800660668705	
33629748	-6.11676957561286	-8.90136387044833	8.14165162365904	174.118414192391	-71.1353144574998	-130.448234546619	-44.4833632922089	-19.6671236679442	
34029745	-6.09785009627171	-9.13497251067535	8.14808646830593	174.178839218937	-59.0764780085793	-74.4084127898636	-44.5246459209923	-33.9526411285554	
34429742	-6.1085483262815	-9.07307281434181	8.15446649814407	174.063850086783	-62.83856307483	111.478379475898	-43.0061912198416	-36.2261516589915	
34829739	-6.11415886590855	-9.14058924042421	8.14788262001936	173.948203901801	-59.5814139636661	-91.1058299595728	-44.9974534195971	-26.5292030916758	
35229736	-6.09083958618331	-9.45225373006246	8.15471945631157	173.88691868759	-70.6646335843295	-115.207402938826	-41.5567441463048	-36.0415910500661	
35629733	-6.05459500944225	-9.35068912156931	8.14112575483339	173.774540809536	-58.8633605635532	167.967603603191	-43.3341747425286	-6.05580226606303	
36029730	-6.08354329793537	-9.55042335584339	8.14520970608415	173.724000048977	-57.3338099466635	20.5088770685508	-43.4182962267194	-27.246278354105	
36429727	-6.08781849429098	-9.74482553216946	8.14804652369326	173.691977538946	-60.2525469698815	-56.0451086131825	-44.109854698495	-12.5837061416961	
36829724	-6.11364581356355	-9.67236496662961	8.15040479151597	173.622053615211	-63.4100196221777	0.624438849226184	-41.3718593563586	-18.1350241727973	
37229721	-6.10031384373523	-9.53676493509847	8.14910341033237	173.53784746889	-65.8269803995602	-53.4142773881061	-43.0335661972282	-21.4978669702439	
37629718	-6.08148835122482	-9.82114247440175	8.14686828879854	173.44429364012	-58.8447579323681	-67.3437883087444	-43.157093620218	-22.8591633018612	
38029715	-6.06779693314243	-9.99122734626919	8.1406478968814	173.328497488051	-64.8415070290528	-115.547625008418	-42.4194504712073	-23.9186045943378	
38429712	-6.07116722810522	-9.91578512313477	8.14371186729616	173.228371067678	-66.8995539280563	157.364190510481	-41.1290384120322	-11.9244686889408	
38829709	-6.06972667244345	-10.0069304801026	8.1423371754857	173.230274296364	-61.3608334734821	131.518228362064	-42.4164461258653	-11.8222637430409	
39229706	-6.08513616578564	-10.2314729952294	8.14047114399536	173.105872028839	-72.3679681218762	-155.907846314822	-40.971838719448	-14.8142669670282	
39629703	-6.0584002216601	-10.2496872689123	8.13568935289275	173.128774101964	-60.8205783749988	-170.209895057037	-43.5310648488254	-17.7493573034557	
40029700	-6.07834847941624	-10.4691474658982	8.14069154899728	172.885106554082	-67.2904604082502	49.5757691356295	-40.9327180894074	-24.2366330747635	
40429697	-6.04558777389124	-10.540446727884	8.13532410984026	172.948065206997	-66.8513273264852	91.2198443898498	-41.7874217810491	-13.5006750019171	
40829694	-6.09432766937362	-10.2188614051143	8.15369038697477	172.760995177378	-68.7643876007959	-102.26401882639	-41.3556430010012	-16.1500351566624	
41229691	-6.09603332019404	-10.5152777113947	8.14176953564642	172.685155837905	-63.7221655664658	117.790583234248	-42.2338803661939	-22.6100020678184	
41629688	-6.04223692682358	-10.6627949270418	8.13156880700077	172.645883884627	-69.5581410166583	-55.6139693616168	-43.0632541562938	-17.8205820849849	
42029685	-6.03262580723342	-10.7957569053803	8.13799412572647	172.669720756924	-66.7248817799831	110.885066919997	-39.2822840576004	-17.3134625014453	
42429682	-6.05889869208951	-10.804284232206	8.14411908044387	172.562514276275	-63.0979277565577	73.452581263031	-39.9711756885705	-19.1375465527562	
42829679	-6.06712454706788	-10.7781678301833	8.14317775979596	172.431096418842	-55.4195372792299	-159.354121116289	-42.1581722680699	-6.26283298911854	
43229676	-6.06265538165434	-10.9639259338314	8.13728474497047	172.338864171665	-60.4493396151634	17.5000027057265	-39.8420740870633	-17.0730988293564	
43629673	-6.05278844805005	-11.1016414971525	8.14318687595336	172.279181845425	-66.1655422588879	101.652298298963	-39.6413070215225	-17.1023318208449	
44029670	-6.0509112919149	-11.0960159662634	8.1376669803344	172.234740082272	-72.8931602945149	31.6447486865081	-39.616052258462	-3.11637723352784	
44429667	-6.03922465842525	-11.2604893420373	8.130341113198	172.110844998981	-72.7130457337997	53.4595912641227	-39.8603651065165	-4.72871435326004	
44829664	-6.028111833624	-11.4670080652888	8.13810101982758	171.993330432418	-72.5600340959476	-162.542752984893	-39.7788948917297	-10.8158482618707	
45229661	-6.04217037738924	-11.5520773350824	8.13868402999518	172.001227295003	-65.3104639914778	51.0419321826147	-40.6411577413044	-4.36290326690684	
45629658	-6.05042725880104	-11.6215697833183	8.13567089256601	171.947087687628	-62.6988080052901	36.21913892376	-40.1008528941579	-8.13087258400427	
46029655	-6.05777953473467	-11.5134814637847	8.13010915560066	171.830577524218	-58.5902535721428	-40.0478182809959	-40.9664109112158	-1.9876589934345	
46429652	-6.04984098598062	-11.6546009298089	8.14103772330335	171.712148126882	-62.2217089565068	83.7690960798564	-39.3747497249694	-14.6121310695544	
46829649	-6.04602165790377	-11.6452225346043	8.13189807461399	171.666332270955	-74.6459437970392	150.321415276879	-38.6759107041385	-8.65904365248693	
47229646	-6.03648642283672	-11.6973881991877	8.14590639488497	171.558813942063	-56.3903802642444	-144.636376770413	-38.125778335584	5.08369467238548	
47629643	-6.04348219205931	-11.8115747512917	8.11811531956149	171.4827865956	-58.698998057327	-87.7161742344755	-40.0017503929148	-1.99536810797827	
48029640	-6.04932868391041	-12.0706291087507	8.12212996775719	171.321351882558	-64.5073209543392	26.9671235921819	-39.083767513567	2.19675671423549	
48429637	-6.04904643130627	-12.1459461325331	8.13059311145894	171.325217081741	-63.1054455111096	-41.0750309846552	-40.249673366068	4.24725258008274	
48829634	-6.03353560673384	-12.1538164846169	8.13736851316212	171.248027627223	-64.519811301012	-98.17201126649	-39.4014575744094	8.38340752307885	
49229631	-6.02385257320098	-12.2240232618393	8.12931425186798	171.242096893646	-60.1552013786158	67.4237415650375	-39.6861393560606	3.78233821172255	
49629628	-6.0501381602962	-12.2000909737723	8.13580700769073	171.095227994244	-65.5620689670656	-162.667069586827	-38.6070619358305	-0.6722250792512	
50029625	-6.04879181959142	-12.193440634343	8.13420324433358	171.058152248558	-75.4074337126505	-22.0221203732785	-39.6508434854441	4.6716311247453	
50429622	-6.02343617697364	-12.3558493822511	8.12785683597788	171.047594370854	-61.5427063061547	139.59945769437	-39.0482801525265	13.9441840728288	
50829619	-6.04602568398134	-12.33796094857	8.11869388862989	170.872836987742	-71.464128520787	-91.6903739406733	-38.6642239502357	3.70201251916689	
51229616	-6.0106210160204	-12.5941925971373	8.13158377043712	170.746671916324	-73.4042506558034	144.651227980763	-38.8350151688702	3.24065758124881	
