!Keysight Technologies N9917A: A.08.18
!Date: Saturday, 27 May 2023 17:09:30
!Timezone: (GMT-07:00) Mountain Time (US & Canada)
!Model: N9917A
!Serial: MY52401314
!GPS Latitude: 
!GPS Longitude: 
!GPS TimeStamp: 0001-01-01 00:00:00Z
!GPS Seconds Since Last Read: 0
!CHECKSUM:0616187190
!Correction: S11(ON U)S21(ON U)S12(ON U)S22(ON U)
!S2P File: Measurements:S11,S21,S12,S22:
# Hz S DB R 50
30000	-8.10537302052101	-67.3272106788436	-48.9477844799066	-108.3611579561	-42.4606592262638	85.4640951663789	-8.10662524494557	-62.0298414035175	
429997	-29.7820911357214	-101.002534867727	-57.2434195122456	-175.051599171549	-76.7976643710053	33.8776632632438	-29.5538947668214	-92.6357301853364	
829994	-33.324850693947	-112.113589371841	-60.4179178277253	171.14800481048	-76.3357387244034	-67.2316519487001	-34.1444984521643	-98.1937203193655	
1229991	-36.0255120131739	-120.024642655694	-66.6388525531467	153.383270878879	-67.0275827941161	168.861347864336	-36.9249149068106	-102.841750238701	
1629988	-37.1355567482032	-119.009217093833	-66.9155019323897	137.626000834107	-62.6450871225184	100.574844306706	-39.6329496506037	-108.956885378949	
2029985	-38.1937391790042	-122.438201398747	-68.407557036623	113.253958173636	-63.1769495192441	175.145912204816	-39.494276945471	-111.057247399776	
2429982	-41.167620253772	-140.228567002979	-61.2179256068582	132.124367023212	-58.0653041779108	169.923364585313	-45.5560115798208	-131.929035248984	
2829979	-41.3593485217705	-127.99650467146	-58.6719080302964	78.6642008106951	-58.6833553594476	-175.509773343572	-44.8249043028923	-135.674885008989	
3229976	-41.6216183119194	-139.5872372804	-62.7293881877233	103.15642246938	-70.516702722137	-124.759013799181	-48.3121360838849	-114.67520660927	
3629973	-43.2221208316703	-140.3250988495	-55.4969342234478	-154.68727553779	-60.2579493424215	-27.4005956846394	-43.1898183157475	-154.524310223631	
4029970	-42.6075447804782	-138.425460771528	-66.3179461138189	42.9577940431312	-65.1425954993879	-109.362306012284	-47.0154048628663	-118.709629274139	
4429967	-43.7416580637223	-148.523534610905	-64.2020788426905	130.115967058523	-64.9466690546594	114.935610795636	-48.8238949610179	-104.39058139737	
4829964	-43.4922406757463	-141.550796919052	-59.4222115061709	4.47276162371048	-61.1726074862845	68.6439470343031	-46.2879493563293	-124.111138400071	
5229961	-42.1540702613099	-141.179253885232	-61.4193657627563	98.344467174644	-69.7515377946092	-92.8135485239536	-47.0570997333864	-158.597270933014	
5629958	-42.8317655659179	-129.949309485405	-62.9333453679986	55.3880775816819	-58.1897485164951	157.048406832845	-45.6043102045905	-135.895385193514	
6029955	-41.3276034863755	-154.997313541577	-61.0918426281904	115.48883717821	-63.1653258020095	-131.188285328559	-47.7898406634474	-145.606836719425	
6429952	-43.7200326537137	-149.671733591314	-66.8400352824603	56.6041529893223	-70.2540632782271	102.965385247254	-47.2760166887704	-151.288671531809	
6829949	-42.6676929845276	-153.193281369781	-81.7884350963682	83.5349488835441	-65.6845402785245	54.4807627157685	-47.8215854231564	-109.714026839782	
7229946	-43.6556077484703	-150.86939595226	-63.9160037142007	76.036164294641	-58.3787012074054	157.728310242952	-46.4413137917389	-137.440796024293	
7629943	-42.0768389372628	-146.472539918301	-62.4505670635149	127.086027090017	-65.0405119550667	143.157858903206	-48.1581338935598	-144.209393932901	
8029940	-46.7860440317082	-128.03165319039	-69.8428241036781	-132.922547358493	-59.8054786508049	127.442400971138	-46.428741953833	-123.181177453058	
8429937	-42.5027737771682	-150.389948917902	-59.3301165651034	89.7231693020607	-63.3247398009233	117.352022933916	-46.9263831167825	-132.195114353534	
8829934	-44.9940099205828	-149.156493689791	-60.7778945052576	97.8613727054764	-56.6812492928095	174.92631699489	-46.7656398443524	-151.936747134078	
9229931	-41.9193870879829	-135.545867735565	-58.7554463647116	113.442711780017	-58.9745232686527	93.3073844167523	-48.5763987237699	-133.930909798571	
9629928	-43.3381044578785	-140.088962141781	-59.1943137842864	120.460566063446	-56.6478870244388	95.5060488314148	-47.7420586214193	-135.344664773597	
10029925	-41.8318600545631	-134.336936763949	-65.0769338398064	171.253571056664	-54.3260980839482	125.266506886328	-47.044276991028	-131.459408976742	
10429922	-41.9339899475024	-127.089526825975	-61.5558890395762	136.521514127734	-54.4003020885409	150.191179710127	-47.5511753456617	-134.085619248928	
10829919	-42.4013989668481	-136.851540084928	-69.3275931638505	118.652661872278	-71.9819083180096	15.7266341858086	-50.4420822939964	-121.622111926784	
11229916	-44.0852432254091	-135.730691038646	-60.6710774813699	145.605125214711	-61.039577334796	88.3820003641666	-53.1022637475178	-135.23487516996	
11629913	-43.9011285124761	-133.616768064027	-54.3956942051305	137.991026318979	-63.2452645823135	85.8955413780698	-48.4543681144864	-133.316006619045	
12029910	-43.1802340767979	-134.527692782456	-55.0787299648539	130.885183455901	-54.8199193376562	96.5691111242871	-46.0501396640241	-129.161997498811	
12429907	-41.9286261587995	-143.909628603059	-57.2263184340763	94.7716450316538	-58.3975209141323	82.536777834236	-48.7916111966657	-105.583125217164	
12829904	-47.083301736448	-133.295211221867	-62.7538178803756	97.2087704288433	-67.8423693590387	84.0871161289258	-48.508705180037	-131.144705063174	
13229901	-43.1384618676654	-130.436991102006	-59.8071721434302	116.226419861143	-60.0554206926813	145.917055232821	-46.9906496718981	-131.566799007696	
13629898	-45.8025597638835	-134.368377816566	-55.9400916119524	87.663455634592	-66.1034538620438	134.374879739026	-47.4486797913011	-107.329098754259	
14029895	-44.5463695268369	-126.872237364052	-57.0272466090741	90.9323327102619	-60.7169613413571	152.569938944786	-48.5421683823148	-132.078443076184	
14429892	-44.3808768838705	-111.246741530757	-62.4946256664591	97.2871519495355	-66.0813021494169	-134.398268693179	-50.0482174736741	-87.7170433278643	
14829889	-41.6688618291413	-115.704110498813	-62.6679286540572	126.48940024773	-56.5169051934524	79.230103276643	-50.2388788318821	-110.604703151137	
15229886	-44.4432690930488	-113.26095770538	-59.6556113804908	157.148719002751	-64.813516872451	72.5789114813925	-49.2751179927355	-100.560412923991	
15629883	-45.2172534521676	-124.50645934981	-54.8098810468211	63.0574099768697	-58.0575906655306	135.15401680448	-50.7298625924976	-103.979405750179	
16029880	-42.7101245626593	-119.635996879313	-57.9804498857346	105.606358495089	-57.1222610592898	164.686770816827	-51.5611481250671	-87.9614211470693	
16429877	-43.8795343916522	-110.157267907191	-60.9102251059351	104.958773770387	-53.7290397088591	114.831446074117	-51.7866452921366	-73.3740952167416	
16829874	-43.159488199858	-106.695703588476	-51.0961025127246	98.3427375886617	-58.6507550604857	64.7631193020972	-46.9249488553676	-109.834321756966	
17229871	-44.7390853133428	-105.11891888357	-58.7291946018417	98.491549452631	-64.0287054849106	78.8967930965155	-46.9217265331953	-91.5801984697082	
17629868	-42.4390332175858	-109.729529391121	-64.2229352835393	154.315887001455	-58.9627243221877	97.3579318699568	-50.8362349174301	-100.470094916932	
18029865	-43.127883205624	-113.660336042396	-55.5911193999569	128.145252721564	-68.239358281776	107.042500187906	-48.7534186228443	-113.337315637331	
18429862	-46.1719534569809	-106.205784957536	-54.2613430214425	107.12075007379	-55.0441850562037	101.295393432841	-51.8463721219893	-126.0878244308	
18829859	-43.9146511936626	-110.960919759503	-60.2360635490629	121.934662324629	-54.88874634329	144.476503671916	-48.123582427722	-92.7103552551812	
19229856	-43.4524219426063	-105.704016464096	-55.263622048155	169.272986569922	-60.8919711904194	55.8075305088068	-45.8303719859328	-99.6977804090933	
19629853	-42.2847365285671	-109.010611748085	-53.5156033439114	102.218307456766	-59.440345925097	86.6509843912448	-50.9404268841868	-115.242965366712	
20029850	-43.0868369244929	-98.6177177348217	-55.5138140635878	72.1653473361474	-56.5637735543818	118.647519627045	-48.6443263236129	-86.5672501017404	
20429847	-43.8103820832728	-87.7690884787552	-57.7868085327861	158.968976800088	-58.1796004452978	153.626048899292	-45.9120682388901	-115.766525890446	
20829844	-43.6195897510169	-93.1989587947889	-58.5626294902662	100.377032901834	-63.3420507699616	150.656842171338	-47.316595083311	-82.5359120423026	
21229841	-42.5758398790464	-93.2825593209565	-58.1459900258743	115.049766727307	-63.1874169839135	74.2413905240987	-45.915907534856	-86.7876123349986	
21629838	-43.7307032032721	-97.0606127701277	-57.6719236786129	113.250991321022	-60.1243742011285	130.760432864955	-48.8854579780166	-63.967828337011	
22029835	-42.5509616919208	-91.1968649747099	-62.2788143836127	66.3805513087498	-70.5016265420396	71.7027419273884	-46.0945216445193	-92.9089015333174	
22429832	-43.1278743560687	-96.9890298190987	-56.1605945175732	93.5594193306925	-54.086334809499	107.267626466404	-48.8451914224891	-89.7506325529	
22829829	-44.8599632379983	-77.4347975468864	-54.4807384732686	119.680331653474	-58.489642878283	112.467023876724	-46.9027977677305	-77.7127012345294	
23229826	-43.0541907572992	-89.8031185126686	-61.0371094732087	122.35874018142	-55.6324940887277	102.385512282823	-48.6332136853244	-93.8851623436011	
23629823	-44.3475360757658	-77.4877590980116	-53.1346774050356	72.252308137248	-58.3756215173175	90.9149744321214	-47.3173203393242	-79.1378790500886	
24029820	-41.3379849788702	-88.4909270547141	-60.8883716711049	130.285454693196	-54.5154063129095	120.270340400107	-46.9184925353421	-61.8954087477877	
24429817	-42.7012150046959	-85.6001774293203	-54.8040524606112	72.8331407048458	-55.6979398789361	99.9068117647682	-52.2109379323601	-32.8542916668184	
24829814	-42.8134891032095	-83.9340715652489	-55.0516013778695	117.415937768841	-56.7217155849191	134.203022896996	-47.4164680217922	-73.4307205754577	
25229811	-42.0494770493991	-81.1581814612009	-53.5446058662579	110.326616157424	-55.7662049696065	112.231048549413	-48.5448880335132	-74.1855429495442	
25629808	-41.8330961587206	-82.1159983951109	-63.3589539334745	98.2315481055259	-53.9293337595091	102.010873059872	-47.2837633141824	-64.8346757955689	
26029805	-41.934010480394	-82.1185632732529	-57.5332127532674	117.341787320867	-53.8603665662815	92.883028083383	-47.803373471693	-61.926964064519	
26429802	-42.4297373304516	-88.0521077153019	-59.4939817900347	134.453436621209	-63.4212773283038	74.7979556832823	-47.0836172705391	-78.036018174411	
26829799	-41.196282875505	-77.1270255999018	-52.7022833552384	91.364852228658	-56.1211201773998	57.7646602599265	-47.6583821196237	-61.1616404478508	
27229796	-41.3193264319686	-70.8993268981428	-54.0155346979296	116.396869033534	-57.8570447523361	60.1581176206686	-44.9666959561799	-68.466896879195	
27629793	-41.7005398223	-84.8170073922574	-55.0072735983368	74.7153517760363	-54.1172615620662	93.0783304874789	-48.6119316318647	-68.5994343977771	
28029790	-42.3002631425847	-71.0770393358279	-55.71930534114	95.727090234584	-57.3554859152179	87.296116094474	-46.9024285318046	-65.640560228422	
28429787	-42.1081915198087	-69.220296513383	-63.9420629782566	104.259074865475	-56.1602389100248	106.604197802953	-44.5881047733706	-44.587469516226	
28829784	-42.0153750236448	-71.7004669227502	-57.9991220876036	68.8296515179622	-71.3674364413756	137.866146628712	-47.4776383720568	-42.2983241346611	
29229781	-40.8945711031522	-63.3818709068906	-52.5569534638445	84.4193550750508	-56.3432331584861	99.2105356375741	-46.6627465743113	-55.2541480750474	
29629778	-42.5901431134501	-64.860401047322	-53.3656861966438	123.135343964651	-57.2178437753924	89.7966669634808	-43.0222322978755	-50.771168664561	
30029775	-43.2154071653797	-61.2801601634999	-51.1782600334247	116.011077360764	-54.8571681542052	96.9007842162968	-44.4351912075855	-42.9142619036776	
30429772	-42.69879485232	-66.9027779532388	-58.7832835342742	58.7962505684853	-54.6677576424564	103.025403160352	-46.1615836292765	-45.853115752539	
30829769	-40.4397541110724	-64.3018806112813	-62.5953311413297	106.469196824709	-56.3755677789455	107.123079700719	-45.0710829541269	-42.8320778080634	
31229766	-40.8545234108912	-53.9346161244681	-58.0851827034791	145.675770379263	-58.3602603884418	89.4073932497945	-48.9489147587778	-58.4763766637316	
31629763	-40.92250748707	-58.4450946406422	-51.1844813702337	77.3407870531841	-55.922944482284	110.696859937352	-45.7397404968073	-35.4023027590632	
32029760	-40.0394877345384	-50.2635246827764	-56.1633697965485	88.4095179231233	-56.0391143688312	46.4666912988847	-44.0182090769709	-48.3027963957548	
32429757	-40.7212490448907	-58.2642797801809	-56.6055999443375	105.39139450989	-53.4833689872499	101.08259604307	-43.6122475614565	-58.20305734699	
32829754	-39.1200052512469	-55.16239456483	-52.9038588477388	105.173390122516	-56.1627008150464	92.8863931649607	-44.0801100788424	-48.6469469767633	
33229751	-41.2994452553536	-58.1778893411005	-55.9584575274994	81.7169257310716	-59.2942074243602	121.708754359937	-44.3095896774719	-47.1853122630874	
33629748	-41.5058593729723	-53.0378265018202	-54.795163390583	105.58073442633	-53.2678743636145	96.6447048499902	-44.1949142631462	-42.0761501545151	
34029745	-38.87969204641	-56.9497702955949	-56.6048977633004	94.2349893904882	-52.6643712926632	72.6369872740696	-44.6728970502816	-33.526620765611	
34429742	-40.2328762289475	-54.6891843547595	-53.2048633288881	84.6977176174768	-57.9807380845776	97.3416100567837	-45.1516984763418	-32.4089402076995	
34829739	-40.8310484232311	-55.6021579719979	-55.1533348868161	91.945693916801	-52.5605503811954	99.036449418277	-45.1123372120064	-21.7063551300275	
35229736	-39.3735904994218	-48.5945925008694	-52.1213122529459	103.9465593325	-56.7076085525794	84.636292660772	-42.5831362161539	-40.0877102571288	
35629733	-39.3488454381458	-43.7122045391923	-56.5756284167124	96.3914554681112	-57.4151919466722	113.787316854688	-44.9821471233491	-33.4767315810571	
36029730	-40.3433644077136	-40.8905031806645	-52.5978990164527	101.968539261026	-55.0381301114124	116.879477310947	-47.5759491008125	-21.0335596127769	
36429727	-39.267502123916	-51.571145891066	-52.1861502058021	75.839982867211	-57.7621267831844	71.389064681109	-43.3154448873961	-24.3843803677223	
36829724	-41.674370013986	-43.4623013195912	-55.1481232974192	94.1907109116689	-52.7492223487389	70.8769774463723	-42.8298204374142	-23.8801551937809	
37229721	-40.1720538580589	-50.0279275656955	-49.5232825517904	107.711680358357	-53.0597599890372	77.6057758490604	-45.1146167568635	-14.6308790933202	
37629718	-40.0558476556735	-47.2059261382635	-52.7301970054194	91.2871863299026	-54.6380411853748	94.0452065286788	-43.123085391139	-12.3440416070637	
38029715	-39.3458000898776	-37.6240481894524	-54.2030070346275	99.7561228150435	-56.9517102902205	92.1444148487364	-42.4792238571628	-31.0528436959801	
38429712	-40.1616957616228	-35.2323412070456	-50.4760322110575	118.911243817817	-51.6531515497646	139.620603963675	-43.2116363657874	-15.7095001264587	
38829709	-39.4802465913484	-33.9860050736148	-58.3962431924701	110.260407480124	-54.1018078272653	63.108871617576	-42.8295391684284	-11.5200490861385	
39229706	-39.5691681241855	-38.1407859694959	-52.3592506051154	125.493687348043	-53.6298159785578	78.4682504953077	-41.2711754525982	-29.2124055161555	
39629703	-38.9971569181779	-29.5833448518657	-53.3265175121167	110.797868436932	-53.3470333389941	108.303010094606	-41.979256775424	-23.5714294185671	
40029700	-39.1335395284554	-34.2926179638952	-54.4957281712308	107.63156316385	-52.9446252891974	82.2329620231625	-42.6708444774681	-22.3921907048367	
40429697	-38.1984992332691	-30.0218481458289	-52.3877469917186	99.9975363465054	-53.5763819377232	109.546710676401	-42.1538293980628	-19.3935520967334	
40829694	-41.4392379299461	-31.693884209446	-54.5703960629745	116.047336401704	-50.4255762073522	74.6062182675208	-41.0929315467395	-6.77741681734737	
41229691	-39.1474613726721	-27.5104326436133	-51.9927882359906	80.1877444804116	-50.9361071581209	107.638083213539	-41.9691156324741	-12.1691687096723	
41629688	-39.1414127779043	-27.1036009572929	-51.6779802689708	84.7505879980317	-54.1791661483736	93.2035078333206	-44.4945486162405	-25.3836175992169	
42029685	-38.9418481042148	-29.703283734326	-52.1707497920315	96.7949147922973	-55.8323715441473	134.027024385643	-41.4011471703814	-15.8283205365472	
42429682	-37.7188967729964	-29.6608680232617	-53.9780187266575	110.279236564395	-54.9640709631587	101.600625757815	-41.6179947104422	-11.6577202210403	
42829679	-39.3831503550007	-25.3343906888352	-50.3688609133816	98.1084388708064	-54.500757470383	117.503901833761	-42.0706181428379	-12.3689146896204	
43229676	-37.9597930685061	-22.7714609658309	-54.8696719779573	73.3480356239921	-51.9392139015912	100.108013628311	-40.0994924817258	-9.42780345690763	
43629673	-38.4052014100569	-25.3918783342064	-53.7664078501551	101.077179684116	-55.9503975228348	88.9330740512801	-42.9900128654337	-7.11067481897506	
44029670	-38.6145655137207	-23.4779237055494	-54.9436441516489	88.7737999773492	-52.4451933716385	103.031896219224	-40.9784084483931	-4.67772382124914	
44429667	-37.8406706491516	-20.6065684179825	-53.9982196868016	105.08364829399	-54.8819233880215	128.970692914746	-40.9885207597191	-10.1365530178024	
44829664	-38.0265926914442	-25.208597613413	-52.2874797260441	98.1087499227786	-52.4472769578525	81.358771345336	-41.9952041382773	-1.71017261575889	
45229661	-37.3508907555337	-27.199305207016	-52.0007043704607	83.0552846295825	-53.5900314903354	99.8061607727569	-41.1493125774636	2.99727943331563	
45629658	-38.5027247447316	-22.8871386144893	-50.0868904333154	83.2673236630631	-53.1526953020024	110.587019061129	-40.6013101829719	-1.78644114773583	
46029655	-37.9722438105828	-16.5061670798366	-50.8745215206813	90.0653740415669	-53.8267551641473	86.2193507567946	-41.1223457164218	-2.81013131662241	
46429652	-37.6611620195324	-15.2700502024895	-49.938006962591	91.3262850399223	-61.0873313378008	103.01812535712	-40.9161427900928	-8.01230475651925	
46829649	-37.7237525419979	-12.8531870812066	-52.8445155921611	108.236950593825	-50.7607184373128	94.1589013257755	-39.5859160164139	-8.4506607480702	
47229646	-37.0096924013063	-19.1679967481723	-50.5279164354531	106.206128994111	-52.4055257572895	91.3092687672241	-38.6152133644197	-1.540167135086	
47629643	-37.4379211186994	-15.9593200537099	-53.5077270383583	77.9487564812734	-49.7654324174744	83.435672160024	-39.4367052853027	-3.11295327118667	
48029640	-38.0040744517229	-7.66863716301762	-51.0154995732176	109.414135659107	-49.9697087687085	105.73451605337	-39.6548284925377	-6.99879003847404	
48429637	-37.2474611111546	-17.2236299237002	-48.8551946212169	101.651837530817	-54.589019007892	91.5821753241126	-40.9141161576731	3.31817328856688	
48829634	-36.4725754375738	-18.5227630720482	-49.8138219522213	102.46434903763	-51.3532744687832	108.656771957022	-39.3519860215264	0.923629973668597	
49229631	-37.5067326070352	-9.44167497992285	-50.5728371619744	73.749139764914	-51.7933608480613	108.194018218181	-40.928879682858	-4.65719093056575	
49629628	-36.449858593012	-8.93684564362364	-50.3122098717218	100.930743474203	-53.2668287110766	97.4733054535722	-39.3504034282969	-1.3354063278196	
50029625	-38.5103001876634	-11.5858019058078	-51.7546950907022	104.647901976376	-50.1693370542057	97.6187738789003	-39.2267819175536	11.8301416043891	
50429622	-36.8340241172523	-3.68153464680344	-52.2324443865197	101.114357858015	-53.7667389187213	96.6258705039158	-39.5321464684128	5.4845168954284	
50829619	-36.8493719543516	-9.85929278946137	-50.6769065577826	80.5182766189582	-52.195474949947	82.7524835953213	-39.5064812911391	2.32568663811191	
51229616	-37.4371775099371	-7.60825752359471	-49.6620361007493	101.869671048358	-50.9265561595807	80.7797155118048	-39.1586084335346	7.52286767696721	
