!Keysight Technologies N9917A: A.08.18
!Date: Saturday, 27 May 2023 16:31:27
!Timezone: (GMT-07:00) Mountain Time (US & Canada)
!Model: N9917A
!Serial: MY52401314
!GPS Latitude: 
!GPS Longitude: 
!GPS TimeStamp: 0001-01-01 00:00:00Z
!GPS Seconds Since Last Read: 0
!CHECKSUM:1319314200
!Correction: S11(ON U)S21(ON U)S12(ON U)S22(ON U)
!S2P File: Measurements:S11,S21,S12,S22:
# Hz S DB R 50
30000	-4.44574806792341	-18.0064151976138	-7.1101422663508	23.7181896154481	-7.15256624362239	23.542610639477	-4.45031968400851	-16.3204809054788	
429997	-6.24905690245483	-2.07806424043585	-6.20804479350274	1.65504176125221	-6.21765115417354	1.54303075950538	-6.2178203705965	-2.14754355854188	
829994	-6.26227555952541	-1.6456144964971	-6.19453532701209	0.579723155230459	-6.20676107250953	0.696776844450358	-6.25227102155119	-1.60335281048236	
1229991	-6.27734846614255	-1.53496077929029	-6.20860333519747	0.175756371547302	-6.22653606215182	0.245832334861784	-6.2369302394927	-1.41974420519304	
1629988	-6.29017846114219	-1.55666245281589	-6.20326830186076	-0.0932132233269156	-6.23038172007285	0.0739245599220499	-6.27266378217339	-1.25858514311178	
2029985	-6.30023447784956	-1.45108034225881	-6.19830980090538	-0.377041131224169	-6.23588837744066	-0.117904919943389	-6.27693298653242	-1.25842974228247	
2429982	-6.29556580763859	-1.06680112874376	-6.21015794587784	-0.249046010907275	-6.19754062585296	-0.193319750422122	-6.22695268407685	-0.685187544959421	
2829979	-6.25092027876749	-1.04300736924601	-6.23142508970193	-0.269329415560659	-6.21796045344841	-0.297656719935788	-6.25255130383509	-0.999260124926399	
3229976	-6.2802939203433	-1.19959391960981	-6.2241202729412	-0.38763796456683	-6.22159417825986	-0.450663652145925	-6.24511134452064	-1.06238404262326	
3629973	-6.26905948774057	-1.07165527791985	-6.19942124816828	-0.487308978848243	-6.17360984657792	-0.722088166928609	-6.25884630926866	-1.20620887804562	
4029970	-6.29379257588841	-1.33972215363267	-6.20980152755124	-0.736135255098545	-6.20640156817885	-0.681326324635904	-6.25595985634498	-1.00218007500963	
4429967	-6.28834639019159	-1.2415675176423	-6.20600086775953	-0.73454343104074	-6.20675431959087	-0.893449140814463	-6.21498708891035	-1.35332759879697	
4829964	-6.27377745617682	-1.41018091389774	-6.2278466417161	-0.767062824270435	-6.19964117062167	-0.795604805324103	-6.20703976350917	-1.5696482921462	
5229961	-6.29499608269937	-1.67120540431196	-6.19499317757624	-0.972298083881079	-6.21535391026376	-1.15304332754936	-6.23598256724082	-1.45192994206368	
5629958	-6.24787419008143	-1.68623828999594	-6.21067094476682	-1.03253935030707	-6.22367202930913	-0.950461269511287	-6.24016742591417	-1.72956987410717	
6029955	-6.27508249117134	-1.73002247515092	-6.19008774693775	-1.16505335911744	-6.19949640290638	-1.11092873960973	-6.27802738500089	-1.89016432168667	
6429952	-6.28291658873894	-1.94453716580199	-6.21887191785179	-1.10484593455866	-6.21357450320681	-1.16138203385785	-6.2577150094393	-1.83429367503854	
6829949	-6.29886676643285	-1.9834182954981	-6.21968859401319	-1.38418200808392	-6.20609660359307	-1.53266898637207	-6.22516093438593	-2.02887548597366	
7229946	-6.27496926792496	-2.01912635065594	-6.20250472121588	-1.41411652809783	-6.23548372581684	-1.36720132984313	-6.27299267070538	-2.03801747796212	
7629943	-6.2719316583635	-2.24881743621234	-6.21666524073745	-1.53010637656659	-6.21440432618315	-1.66945429757198	-6.2323675479171	-2.10726016820148	
8029940	-6.24585253093412	-2.26107436115079	-6.24629956691215	-1.64911841042037	-6.22812031338928	-1.73272839877655	-6.24662494751668	-2.31965775065612	
8429937	-6.27417880276667	-2.41114745273966	-6.22697660163353	-1.60444787969667	-6.22745790062837	-1.70301353390781	-6.24810122796581	-2.53560115495565	
8829934	-6.26899988473921	-2.2995209051315	-6.22362264728841	-1.82659705249813	-6.20848315428809	-1.87862165629265	-6.23983361629529	-2.46508115670916	
9229931	-6.26051597654134	-2.67734237860775	-6.23646694352876	-1.75218178201139	-6.2277470366683	-1.93472545652996	-6.23323248641117	-2.45386405425583	
9629928	-6.2729621770605	-2.7170955554586	-6.18911691668047	-1.84633326103749	-6.22648269308983	-2.0859916474927	-6.23415228553412	-2.58382945497311	
10029925	-6.25207918186596	-2.74607746123462	-6.20221714047833	-2.0726065507344	-6.21857314143693	-2.01128989116488	-6.24060718946063	-2.71877683211305	
10429922	-6.24174026193697	-2.96899726940768	-6.22956017255053	-2.06197947046879	-6.24394315889218	-2.29316087011718	-6.24596810603715	-2.85316709752541	
10829919	-6.28470656531176	-3.02026953763679	-6.22310626503439	-2.02891092611902	-6.21494738197469	-2.2969723545003	-6.23052516921033	-2.87751808968995	
11229916	-6.24940422115162	-3.21373466067878	-6.21952237682617	-2.20080269856285	-6.2420322005055	-2.36050336284651	-6.20956804962929	-3.01604101352719	
11629913	-6.25757654325177	-3.33816874929404	-6.22064563176668	-2.38250973684776	-6.21795739080687	-2.39122248580272	-6.24263401077694	-3.18492902391306	
12029910	-6.26411537651574	-3.20127134965923	-6.20456522152126	-2.36325329119462	-6.22501539271072	-2.57480215757534	-6.23998311663791	-3.25314571679172	
12429907	-6.27971623678151	-3.59425758004184	-6.22875840562403	-2.55898534666587	-6.22528848057717	-2.66822271986329	-6.21075681548339	-3.31869130996939	
12829904	-6.22457500132916	-3.46479720551616	-6.21684270645989	-2.75209081699568	-6.2175783645116	-2.69265589095151	-6.23758412693601	-3.43926997619016	
13229901	-6.23860557441733	-3.6517426337617	-6.21646913020693	-2.76478152984566	-6.21696015633909	-2.87077839120342	-6.2528641477972	-3.56336421558103	
13629898	-6.24299438300791	-3.85321049364182	-6.22328284168439	-2.85677833204	-6.2415862081307	-2.75227235831323	-6.21976534875468	-3.7758340211825	
14029895	-6.23176620458495	-3.8065950200315	-6.20925211799082	-2.93672468310586	-6.22945895751272	-3.01463345781862	-6.24362440803867	-3.78699377378029	
14429892	-6.22848700803941	-4.07283638736165	-6.21334228929664	-3.01538564051237	-6.24175017901378	-3.09900963775236	-6.2094875066372	-3.78101888588573	
14829889	-6.21681648361416	-4.14463872304112	-6.22935448381328	-3.02129371869515	-6.22900422292087	-3.08632751088041	-6.2430205328407	-3.81549724851755	
15229886	-6.23142160047629	-4.4418718730699	-6.22966339075146	-3.25941564796556	-6.25358169456943	-3.29428484204629	-6.23651360246472	-3.98813821499011	
15629883	-6.24563729248706	-4.17056729135251	-6.2063857959561	-3.23080366881095	-6.22128036720322	-3.32260890050935	-6.22361722333323	-3.97965292180626	
16029880	-6.24327601091067	-4.54507011537581	-6.204434016726	-3.34383845678779	-6.21814275608542	-3.40225517146173	-6.22949460591555	-4.2021873598054	
16429877	-6.26226244148731	-4.55457136672582	-6.20373217583309	-3.4932246598843	-6.22351950169564	-3.64152953307184	-6.20875520797374	-4.30729005347486	
16829874	-6.21482623401108	-4.72136433231373	-6.20980645650557	-3.47151847012777	-6.23176193359675	-3.61049113992004	-6.23852053277647	-4.4009051360305	
17229871	-6.21648360970829	-4.77152767405609	-6.21838583490652	-3.53506877818862	-6.2206145980966	-3.65687514033996	-6.21601118436753	-4.65390442747186	
17629868	-6.2073200133604	-4.97216817208945	-6.20661964698461	-3.76087697424429	-6.24044407930066	-3.79815825311963	-6.2244232735683	-4.46582746268494	
18029865	-6.21336795932274	-4.94036169319719	-6.23004493407248	-3.82087958741358	-6.22780922903674	-3.67970880167235	-6.22556827358991	-4.72884239228702	
18429862	-6.2197634333475	-4.9199960574598	-6.22090311355357	-3.86207404106953	-6.23648302997395	-3.97248653436778	-6.23133463907971	-4.69690755625681	
18829859	-6.21325355891026	-5.07473416318955	-6.21664878643111	-3.96821106985599	-6.25532696664141	-4.09517890539747	-6.20464121817757	-4.88388718149798	
19229856	-6.22678307552519	-5.41816434748768	-6.22930770331158	-3.9936265099281	-6.24444930272905	-4.16174330026424	-6.21317190553387	-5.00167944090123	
19629853	-6.21008258897253	-5.452743617706	-6.21791732531355	-4.27485624770043	-6.21858825126931	-4.17824663494457	-6.2122544279596	-5.16125601720785	
20029850	-6.22837759915851	-5.58665835849389	-6.21455087566841	-4.21417570984128	-6.22353136228795	-4.21869241094762	-6.1695585149927	-5.07887902536941	
20429847	-6.207691172657	-5.69426630572945	-6.21099008979617	-4.25215875404738	-6.22751822768708	-4.32885091611394	-6.23213196328134	-5.35211799244303	
20829844	-6.20119686083586	-5.56260697947327	-6.21639797201403	-4.33804424079898	-6.23838436687962	-4.50817887703333	-6.18104619622585	-5.48323951009369	
21229841	-6.17656133254309	-5.88739717706154	-6.21021773562885	-4.5399645749978	-6.2406716488282	-4.51717007621694	-6.1936982745729	-5.52963287129642	
21629838	-6.18384648185784	-5.9238562196369	-6.21995243727592	-4.56290851768736	-6.25274712901997	-4.53797061584345	-6.18822895656037	-5.51204703099743	
22029835	-6.17908160974396	-6.02780528388494	-6.2398276335516	-4.66753621332733	-6.21923310543742	-4.66085815087946	-6.223788532398	-5.89361594519431	
22429832	-6.184223279336	-5.96285796414776	-6.20823389030503	-4.70208042334082	-6.25131419630321	-4.70006419398995	-6.19737061025035	-5.75761901394064	
22829829	-6.18686853061155	-6.13622748642753	-6.22019630464692	-4.78795873062385	-6.25608134999194	-4.9564019753827	-6.20315389201858	-5.80073158085616	
23229826	-6.19063243700431	-6.34742983960661	-6.24461280976588	-4.9436846779391	-6.22344224242284	-4.84905748158232	-6.18482289497642	-5.95633745316751	
23629823	-6.16082041992094	-6.2865411387355	-6.23547213325554	-4.82136508545935	-6.2380885112413	-5.04829582444377	-6.20575442433159	-6.15998738092023	
24029820	-6.19483054951251	-6.69598551665742	-6.2484998527197	-4.88278599945313	-6.24578108043741	-5.06884755117238	-6.1663121239536	-6.08683895435803	
24429817	-6.19114450425119	-6.65121961165496	-6.23898268269085	-5.12983523432898	-6.25534012377172	-5.27647986262181	-6.17026951331501	-6.24397807748821	
24829814	-6.19956500096461	-6.7534889298239	-6.22341137565564	-5.33979254605973	-6.23818647940206	-5.33374203290282	-6.18436837456446	-6.16024688696046	
25229811	-6.16761681330883	-6.83059454652544	-6.20753189765317	-5.38269129119744	-6.23682217303615	-5.37323636393661	-6.18753962934378	-6.54437312234712	
25629808	-6.14775471345965	-7.1457885035584	-6.22385874063302	-5.33731587047719	-6.23226371796248	-5.49338463512989	-6.17591832204075	-6.65566135867336	
26029805	-6.15593156868294	-7.16639908666814	-6.21192824665383	-5.6058993983614	-6.24978894149983	-5.63368513391141	-6.17805338257438	-6.58650943005393	
26429802	-6.17735146779974	-7.13772907812493	-6.21397802241936	-5.63362090494658	-6.23446612989228	-5.74775406597288	-6.16842026892813	-6.84669236482519	
26829799	-6.14786255989517	-7.40711976806416	-6.22071691254983	-5.74502110358852	-6.234861568517	-5.78423272899414	-6.15128267045344	-6.90642339855121	
27229796	-6.16104179490738	-7.27519593835803	-6.22052172818782	-5.65873803445834	-6.25032506267053	-5.88353269274442	-6.14380436071192	-7.07331172279729	
27629793	-6.16410287516359	-7.62574269954957	-6.2184074709464	-5.81123376604504	-6.24933597849779	-6.06328600533815	-6.18328677220173	-7.23288699073756	
28029790	-6.15032504356021	-7.52525121523844	-6.23647352293767	-5.93355936144551	-6.24495570990019	-5.8939616477306	-6.190351069538	-7.07255478881154	
28429787	-6.19074297492575	-7.49373786718322	-6.24054511598065	-6.04546298655395	-6.25788305126001	-6.19243253994723	-6.1517951234353	-7.3500400184889	
28829784	-6.1196434822369	-7.81072128576896	-6.22249309942115	-6.29078023063839	-6.25196028076362	-6.25282300321664	-6.15975242958144	-7.32291801666363	
29229781	-6.15141537873368	-7.72792675095619	-6.23605647660881	-6.18162742602814	-6.24124405314932	-6.19044897501499	-6.15427611200542	-7.39859955557157	
29629778	-6.13280501220027	-7.76791207296144	-6.22570007390544	-6.26512409274317	-6.25755850932284	-6.38309021329923	-6.11926814067051	-7.58981416138576	
30029775	-6.14488234854406	-7.85669966288399	-6.22792538035938	-6.26328759683958	-6.25581901900728	-6.44895904547869	-6.11322886002537	-7.76356270858118	
30429772	-6.15563798249682	-8.12063539001523	-6.22882500823063	-6.53350017475972	-6.22098376801321	-6.57898049219011	-6.14386781602781	-7.76932443613114	
30829769	-6.1441407165245	-8.24025401710458	-6.22753210157895	-6.48903082096726	-6.23385011528142	-6.76037618057025	-6.11760855715013	-7.84639356549672	
31229766	-6.11998147262312	-8.40805090117436	-6.22422819429971	-6.53042689859058	-6.26599053804959	-6.72004860412561	-6.15573146718105	-7.98024774298857	
31629763	-6.13455505403138	-8.34688204489884	-6.25430882984766	-6.60635583570527	-6.23048185545893	-6.88957992964675	-6.12849893420206	-7.83122735446742	
32029760	-6.12425007771066	-8.50199559066612	-6.25879782758479	-6.87949732630069	-6.26795050437494	-6.87793534683781	-6.1234602002758	-8.23608492917283	
32429757	-6.08514610272891	-8.57159357538157	-6.24368211367079	-6.81724946565345	-6.25592567983992	-6.94509217650893	-6.14144177952728	-8.30045767444182	
32829754	-6.12470400381572	-8.71242804131761	-6.22173470756737	-6.9054186517744	-6.24959252161323	-6.92152955549095	-6.14404078837631	-8.49666892610527	
33229751	-6.10335775517469	-8.87986612303609	-6.26775758674391	-7.13869864804839	-6.22055923381217	-7.20486063625393	-6.07055479007542	-8.41199562947644	
33629748	-6.10919280571728	-8.92843535838989	-6.24041009579792	-7.28035046558913	-6.2579664120053	-7.19432432547674	-6.12922526400297	-8.48035872939758	
34029745	-6.08910754098322	-9.03350959253293	-6.23756182353262	-7.29819313413162	-6.24964315557726	-7.33493472009403	-6.1205231718844	-8.55588460994158	
34429742	-6.0858566437021	-9.02154384290347	-6.25798349908838	-7.42911999060776	-6.25137501923931	-7.37346950563785	-6.1304293673851	-8.66819077059537	
34829739	-6.11796029816329	-9.25152234669334	-6.22928008321786	-7.46393301702295	-6.25330027106276	-7.58354409528932	-6.11804222902886	-8.84497924015226	
35229736	-6.07246436744853	-9.21056121704918	-6.23997004508704	-7.71252689458626	-6.25825319753258	-7.49349579099713	-6.11885785750982	-8.89422127149371	
35629733	-6.08233767520307	-9.30630451072564	-6.25139836409861	-7.65293682770917	-6.23826530854379	-7.72045313441808	-6.14233646503518	-8.88091260510611	
36029730	-6.08872734378353	-9.27228642914949	-6.25648770695921	-7.72176692277025	-6.26538854417379	-7.85434854100312	-6.12440818608843	-9.02257270354848	
36429727	-6.09286543154151	-9.46866235736111	-6.23003960449023	-7.7477769109346	-6.26749388887988	-7.89550831710196	-6.12398531380177	-8.93139158640749	
36829724	-6.07755830943113	-9.62584930074769	-6.23429549948365	-7.74590946358982	-6.26443856390225	-8.05486496012918	-6.09541340131256	-9.1216976031767	
37229721	-6.0894487485536	-9.52382995059619	-6.2224258346389	-7.94368111256256	-6.25141750550378	-8.22896516104372	-6.0905679608382	-9.34760870527982	
37629718	-6.07459268091066	-9.75830188128318	-6.24860046661409	-8.05331161843641	-6.24537633936248	-8.13893061667213	-6.10882076873442	-9.41249300249087	
38029715	-6.08323412435114	-9.88894909214677	-6.25502206598466	-8.18724973674139	-6.27240824240867	-8.24775082993663	-6.10923956580327	-9.59097885050778	
38429712	-6.08080463465371	-9.85072452196273	-6.24252500742528	-8.29517643412053	-6.2721567879426	-8.27352312086728	-6.10002052067966	-9.62047591869217	
38829709	-6.08564588473245	-9.94941416300677	-6.25522162636232	-8.37212346229583	-6.26847633019304	-8.40937075131088	-6.11031003672492	-9.66298993145832	
39229706	-6.07282384224879	-10.0063037876132	-6.24646017374496	-8.31161834629365	-6.24585621442997	-8.47112096212286	-6.05336263617634	-9.7955473212817	
39629703	-6.06685107639521	-10.0640455414685	-6.26697643246125	-8.40023905748419	-6.25866679138203	-8.45705081560725	-6.10607681563926	-9.80132818624023	
40029700	-6.06720049048088	-10.2072987156951	-6.22379175661602	-8.75362422848631	-6.26850060645632	-8.59004894445755	-6.09978427640561	-9.92178360119443	
40429697	-6.03634231410112	-10.4152067005937	-6.25233757408584	-8.74233918318235	-6.27546613346193	-8.9829274570623	-6.09580642311781	-10.046744096511	
40829694	-6.08485607783579	-10.4358885378912	-6.25369101113745	-8.779622700471	-6.26307244008921	-8.86625945378991	-6.09005323727977	-10.0035431052787	
41229691	-6.06894440334656	-10.6134461803291	-6.26020232449804	-8.8767514211903	-6.27389768367627	-8.78093990778269	-6.07002054753425	-10.0916486897084	
41629688	-6.04058363349215	-10.5202776461978	-6.23885835357519	-8.95132565025145	-6.27395109901834	-9.04107543591272	-6.11049083015851	-10.318919335881	
42029685	-6.03642625645277	-10.8256716918101	-6.26296928711907	-9.17139515250002	-6.29167964703376	-9.10251097531256	-6.09370632576063	-10.330739136441	
42429682	-6.03542035273696	-10.6490502882547	-6.23952417339483	-9.09073593119588	-6.24829350114237	-9.08683334123418	-6.08261648399793	-10.309803015947	
42829679	-6.04383320074143	-10.7831125337217	-6.23064036692988	-9.47733602085049	-6.2801095755475	-9.36622715072514	-6.06973410844853	-10.5759844374706	
43229676	-6.04134670042465	-10.8681537808529	-6.26091854037084	-9.28130344861486	-6.29020575249975	-9.31698947325714	-6.07175115244177	-10.5089926410352	
43629673	-6.03775303091372	-10.9702255815401	-6.26067488777113	-9.57460930485755	-6.24150140552509	-9.62592946674344	-6.09428703378093	-10.7434589793827	
44029670	-6.05022010362607	-11.1107576405977	-6.24343587917417	-9.58427789776661	-6.28625192783168	-9.52047181696599	-6.05976631792913	-10.7731791343681	
44429667	-6.01874385383031	-11.2861097076473	-6.26289763438662	-9.73082199818037	-6.28764959931152	-9.64190504078629	-6.10830833945675	-10.9806317559366	
44829664	-6.02096764031034	-11.3371625733566	-6.26684013511672	-9.76994507371385	-6.28277059035674	-9.78538403201049	-6.06768969088201	-11.0259149186418	
45229661	-6.04828281933681	-11.4237998584827	-6.2770665758432	-9.66300218546658	-6.2867646870692	-9.84646755951811	-6.05753411617551	-10.8938990941634	
45629658	-6.054040951586	-11.5651439922369	-6.2658610189354	-9.9594139057994	-6.26577295347799	-9.90489636571812	-6.07691382433107	-10.9037560146528	
46029655	-6.03251445781459	-11.4968637458861	-6.26936513617267	-9.97477322336358	-6.3199805086699	-10.1784121108487	-6.07333703667865	-11.2224974870599	
46429652	-6.03579799964406	-11.640615781092	-6.25649949158157	-10.1731775895079	-6.31838298455285	-10.3688538836794	-6.07950619839439	-11.4065834594112	
46829649	-6.05404550329112	-11.5033464930451	-6.28103947357749	-10.2178315343998	-6.31019165886032	-10.2581185434	-6.05479756099277	-11.5983468642717	
47229646	-6.02055860154917	-11.8297025371184	-6.2479795132488	-10.4915894265712	-6.30685398765276	-10.5384157229638	-6.0376277451559	-11.5141700026837	
47629643	-6.03434989340986	-11.8069544265335	-6.31165126172951	-10.3916980133833	-6.27517482178642	-10.3156639296458	-6.08971886400806	-11.4111212509836	
48029640	-6.01688678386098	-11.9254652279368	-6.26929702173469	-10.6496335835971	-6.29246310612147	-10.596831532226	-6.06304402083869	-11.5268446413934	
48429637	-6.00426724569869	-11.9901400826933	-6.2511023363972	-10.5081107145415	-6.26823841812926	-10.539804298949	-6.07204723010599	-11.4631032018137	
48829634	-6.01036573796307	-12.1359868521735	-6.28448411480612	-10.6737246791654	-6.28793372136768	-10.7091181242913	-6.06520442349206	-11.5586690658051	
49229631	-6.03008636573397	-11.9706733626651	-6.27351154631153	-10.6746531061897	-6.27647462028532	-10.9418969422305	-6.0536925460163	-11.9160482054225	
49629628	-5.99991768712029	-12.2940309275442	-6.27346333337163	-10.9733318510609	-6.29570111932119	-10.8240013345236	-6.06450561593577	-11.8601150029871	
50029625	-6.03842537700351	-12.3027112120864	-6.27587540453899	-10.9112535410662	-6.29713063631471	-10.9536987390671	-6.05883961150468	-11.9405440847251	
50429622	-6.0271576090707	-12.2354523718546	-6.25894905491679	-11.0809460053396	-6.30234395840156	-11.1012650821462	-6.0632422092344	-12.0135102525689	
