!Keysight Technologies N9917A: A.08.18
!Date: Saturday, 27 May 2023 16:49:32
!Timezone: (GMT-07:00) Mountain Time (US & Canada)
!Model: N9917A
!Serial: MY52401314
!GPS Latitude: 
!GPS Longitude: 
!GPS TimeStamp: 0001-01-01 00:00:00Z
!GPS Seconds Since Last Read: 0
!CHECKSUM:0518553513
!Correction: S11(ON U)S21(ON U)S12(ON U)S22(ON U)
!S2P File: Measurements:S11,S21,S12,S22:
# Hz S DB R 50
30000	-4.23015315936145	-19.9756538351621	6.17913896025908	50.0616640227015	-46.8407417247475	104.970295488272	-7.76474735165958	-62.0258171275143	
429997	-6.22336603936213	-2.2430383650087	8.05494147756264	4.13734987278485	-68.2715750170891	-111.984135627085	-29.2792120058867	-91.1420057581659	
829994	-6.2633220734226	-1.67291003402571	8.10412545496571	2.19306878940215	-62.2907613762855	-31.5033291947781	-34.0797147031034	-98.2253589138063	
1229991	-6.24687582590585	-1.51943869265204	8.10879297129556	1.32220919308536	-76.2298708250827	-142.153257830501	-36.9858069427037	-95.4560442725679	
1629988	-6.26963964781504	-1.51593985436336	8.10420339987589	0.963470744671701	-70.5531804933292	-96.7291392295407	-38.8685318245255	-99.0687054439287	
2029985	-6.27536777090705	-1.49514916074927	8.10885165957903	0.610061258454693	-64.2933356893471	150.191258997089	-40.6699877176301	-105.772290294157	
2429982	-6.22899208740435	-1.00191747728703	8.13606328764154	0.75765469733479	-58.1578830008772	-133.115992136011	-44.9639118947314	-99.4226166990279	
2829979	-6.22513322583879	-1.20511351212572	8.11413942223598	0.507305854417113	-65.1774311359238	169.621154924227	-45.378708190661	-106.009799916551	
3229976	-6.27425463173051	-1.04849642128579	8.12524937956554	0.387020111522141	-65.5178978586016	-69.7977891535021	-50.775485254396	-93.4981082091733	
3629973	-6.2471478284114	-0.977259850969254	8.12744433777362	0.323580273406685	-58.007558215743	-15.4777342564472	-45.5450505696326	-145.256075521164	
4029970	-6.27313673652162	-1.37163759889739	8.13154569455158	0.214869907020507	-65.557731534745	13.6640157909299	-47.411727793614	-98.3539142717602	
4429967	-6.27010319632458	-1.2357007959886	8.14121234855894	0.107954267365747	-58.3939542795997	-17.5208535598886	-45.5926820717868	-107.4265144748	
4829964	-6.2554727073117	-1.52401155209417	8.14153505107673	0.0544026767993254	-61.7643450871651	20.7085650913772	-45.7563559628647	-115.085900828755	
5229961	-6.25948971583108	-1.73319492803566	8.1436848066318	-0.00333612356339216	-75.9775035945811	-70.9623389499373	-54.3859042082398	-123.746425345431	
5629958	-6.21869571502867	-1.67701312408048	8.14544004180811	-0.0416018518119545	-65.5365723114717	169.087053824771	-45.8176141783359	-103.613664356157	
6029955	-6.27831202685037	-1.77176464348054	8.14747199395834	-0.205293986800054	-58.0073556462783	48.8242800348424	-45.0808463100145	-135.674866019065	
6429952	-6.28094776450842	-2.03805764341392	8.15087901669255	-0.219598446218471	-56.3481227082718	27.9892654746418	-48.3035574192611	-117.042242420776	
6829949	-6.27154857866056	-1.88136494201365	8.13809389193543	-0.330663082365887	-61.2496159368102	-84.311825073759	-54.348548053989	-94.542331815608	
7229946	-6.24116045437192	-1.96358605308229	8.15648772581331	-0.3820101458347	-65.8387941919568	90.6859413871148	-47.3888142586864	-100.147954393744	
7629943	-6.26727462737088	-2.24327636923498	8.15697937786226	-0.319356297808743	-61.1160973480297	16.6780030719104	-49.1062976623891	-133.537980043842	
8029940	-6.21690090826702	-2.30135451725739	8.13278513101252	-0.49619139505519	-59.9267050864268	80.0486410809003	-46.7496235941291	-104.81599911518	
8429937	-6.25706366932753	-2.37946607511266	8.14899283150066	-0.450126079385458	-61.0906263505152	-48.7175615103128	-51.5352277016314	-118.109802960385	
8829934	-6.23640163756033	-2.52531749188614	8.15116110420254	-0.573611615903785	-63.8219121245185	168.219013793483	-47.1715520087724	-114.899470361867	
9229931	-6.24340504699592	-2.66341476614282	8.15210855430396	-0.582631026800442	-64.8915581063034	-171.43307139757	-48.891711972451	-108.190420185268	
9629928	-6.25376163681008	-2.8478725088091	8.15926195112751	-0.634125419783042	-65.4075094846621	31.1301061597384	-52.3218804534385	-116.247753087704	
10029925	-6.24149845956317	-2.70904007416523	8.15678400675694	-0.61456465718949	-66.2436353989035	-3.88186942279029	-52.186222229016	-127.719504217728	
10429922	-6.21297188745248	-3.07187102775966	8.14744981576651	-0.774238548690233	-64.5497973401394	-161.73511753114	-49.8816910146121	-96.1974872687924	
10829919	-6.23832659130368	-3.06122777328859	8.14669880711789	-0.681400448013793	-79.4875532527987	-72.6638626622749	-50.2698767463335	-96.8874805740879	
11229916	-6.23621411024342	-3.43128759931545	8.15469320496432	-0.856007979992881	-65.8073333549226	-132.876523728104	-50.4583299854189	-108.338865192869	
11629913	-6.22742124503532	-3.35946294928541	8.14859546780636	-0.917830900253748	-62.4884261797355	98.8964091946458	-48.0793839238429	-90.3626188657669	
12029910	-6.2555150397308	-3.39894181773037	8.14511794081328	-0.914676885371267	-62.8578167064116	16.7240580774402	-50.749780096793	-92.0733721634836	
12429907	-6.23940893488472	-3.51022769563155	8.16411938072135	-0.938901537874934	-64.1824430056332	177.36377365998	-46.2363245521901	-87.629582815163	
12829904	-6.1888741528825	-3.63444833837525	8.14550819275281	-1.08679807780021	-73.0730334979775	173.540045888825	-50.208550617975	-99.0865065998174	
13229901	-6.23398424799792	-3.73951563832682	8.13939383994226	-1.09132122413408	-59.6928314604865	-41.4974354418192	-49.7636409561683	-113.996035549423	
13629898	-6.25257561783282	-3.72906692085837	8.15941455068796	-1.19321650747079	-69.6575467783849	23.0700487177214	-45.5238177207118	-109.233432721499	
14029895	-6.23295343261603	-4.08868442932589	8.1542570339129	-1.19225646565714	-64.926232276205	-28.5175205577243	-49.763803258558	-95.9381370132145	
14429892	-6.20227376270518	-4.25134135130218	8.15185523244607	-1.23276677044688	-59.7209453727908	153.936752060755	-48.8008263543132	-76.716346593845	
14829889	-6.20891530226529	-4.20003668993257	8.14945872562596	-1.20233988401692	-62.5803156255709	-75.6223358593553	-53.8500758838401	-72.1331609446527	
15229886	-6.19201986943426	-4.41558245808636	8.15402781157537	-1.29503227014143	-61.3312767980999	-68.0423552327719	-47.5937357402085	-81.8202937603739	
15629883	-6.20418859218272	-4.39246774750877	8.15131257999109	-1.31781889957764	-63.2995298391716	-166.804110787363	-49.1002400399795	-74.5599715529958	
16029880	-6.20590027369209	-4.3782644512897	8.15556602385563	-1.37844306976396	-60.9912380810834	32.4051081528496	-49.9783178414612	-88.1783297693941	
16429877	-6.24085702725691	-4.6931923734349	8.15529648146466	-1.46312653753506	-58.141856886658	46.4854414809173	-50.268608995527	-63.1167706902452	
16829874	-6.21380006886585	-4.78324350117148	8.14696522415345	-1.45183667001392	-71.548067854284	106.195304632958	-47.9447616091254	-98.5871771236987	
17229871	-6.19931058238969	-4.99465219973712	8.15319548105636	-1.49955974311732	-63.2576662984499	164.356600960126	-45.4816292874891	-76.6871487386095	
17629868	-6.2118010390475	-4.71923831352624	8.16014538318571	-1.52385935405283	-71.248481937763	60.3158400578541	-53.5858884605432	-79.0160823742272	
18029865	-6.2123437992733	-5.0844812926347	8.15278154434677	-1.57725203196622	-62.2815621472999	82.9115207821701	-46.4636749152474	-89.7448341057282	
18429862	-6.21990179803341	-5.00244789879881	8.16360761860267	-1.74953563934144	-59.8273834510365	42.2551134292058	-49.7253640141034	-105.66400435186	
18829859	-6.20441091823467	-5.37802412023828	8.16233876610425	-1.74814806449536	-71.2767551639187	133.369438307564	-49.1870174769003	-69.9697429379348	
19229856	-6.19785979987255	-5.51441902851399	8.16189324632836	-1.7224614404769	-58.4108035199238	149.30471502361	-47.6426576926648	-66.4522662745507	
19629853	-6.20118060889718	-5.43696468137186	8.16225716599448	-1.89077129187477	-68.2286417593422	-12.0394717982673	-50.5708228813177	-92.2853364863852	
20029850	-6.2286732425461	-5.54048642412264	8.17003462921458	-1.80591348240327	-59.9162580011081	29.1019199059136	-49.4255304767866	-54.2084756402045	
20429847	-6.16685911836898	-5.58139576755794	8.15034650293874	-1.87427384941951	-61.1130539924682	177.800440837995	-46.606751726889	-109.450322670041	
20829844	-6.18143727579848	-5.66285883986819	8.16026014912119	-1.938616349692	-68.2606535650394	-93.6840953083237	-47.4552971760308	-72.1284930389771	
21229841	-6.18403011409451	-5.97772527992328	8.15317053846451	-2.00681753361028	-67.8315977189182	143.800657539358	-45.9525510875083	-67.3996033823914	
21629838	-6.15645287655277	-5.87445566928014	8.16753356199775	-2.04712161549318	-64.9606843539741	-125.892606886028	-48.456300941486	-46.17454126218	
22029835	-6.17638085730002	-6.00480461883541	8.13563332058322	-2.01993323211254	-66.3979833558138	-72.7517783323642	-45.2682190406433	-76.3939183115058	
22429832	-6.18603813057594	-6.27963759975489	8.16513971887705	-2.11253256152693	-68.1331474428667	112.530194309518	-48.6341715189425	-87.2136508322778	
22829829	-6.1543706396209	-6.26864267613994	8.15802351897611	-2.17422531382786	-79.839062489277	125.757183503606	-46.4823222032604	-45.8968361496465	
23229826	-6.18476444987496	-6.38232004378508	8.14905568300153	-2.21159220614352	-62.7513965060954	-26.9545960392892	-49.9430434051258	-58.7305954997619	
23629823	-6.1482800104718	-6.43528553956433	8.15100959571518	-2.23651360249363	-64.8142984682599	-166.131954164189	-49.5048392699725	-53.0356927664196	
24029820	-6.18011222869468	-6.73690893932089	8.15848324050173	-2.24721794431212	-63.6998151376161	26.8714786580804	-46.3283993176171	-51.2795353637917	
24429817	-6.17773393695268	-6.67956477538247	8.15897710148469	-2.3226945913217	-65.0650763113102	-103.769270813357	-46.2714603065651	-36.6533151017644	
24829814	-6.17385031349218	-6.85284652018434	8.16563319717399	-2.3287702992409	-71.947400650746	-66.0144984758904	-48.7424359851737	-40.2525019411415	
25229811	-6.15317721961965	-6.94910076045045	8.16915196861648	-2.38314420514257	-68.2265125995301	151.418505829979	-46.8256449452823	-63.6925235557882	
25629808	-6.15216721487171	-6.976937650808	8.15600757459207	-2.45908289856916	-58.0498255735451	18.6271497794412	-47.6955495639032	-63.8467104312699	
26029805	-6.17303475703133	-7.22573085824921	8.16110458363079	-2.52906305320149	-56.3891788121719	63.0731709306901	-48.4209821647391	-49.5342919082314	
26429802	-6.1613053763322	-7.21202420053885	8.1690649210872	-2.57627472398019	-62.753381151456	-122.872609298693	-45.3800729614007	-56.0330719935766	
26829799	-6.13718430170453	-7.17618369714181	8.1665904526722	-2.59240145283243	-59.2909525759368	-42.423990303701	-48.040328229156	-33.1312242146742	
27229796	-6.16759745289847	-7.50998507198355	8.16125922052263	-2.63452740084537	-70.4263150105529	-113.165713065925	-44.9768150835063	-48.178415926285	
27629793	-6.14685347309838	-7.35171474361706	8.16977811498535	-2.69461328531005	-69.4843791009106	20.4168019854355	-46.0768146047406	-54.9119353166866	
28029790	-6.14840107339881	-7.49458281804375	8.15454671730428	-2.73792043825541	-64.5664961502131	110.429905357158	-47.3982341426948	-54.3469007720136	
28429787	-6.14092429921053	-7.55132371282722	8.1582997396438	-2.76503331659096	-61.9471912592773	-23.990489685566	-44.6359126627634	-38.0061947980617	
28829784	-6.12323624057594	-7.84637741416442	8.17063414349007	-2.86835262224135	-64.4860125009579	48.7339897664258	-45.4055778815329	-42.4453660221555	
29229781	-6.13614563082728	-7.99518027713286	8.15375192896778	-2.86655191662622	-75.2008177164321	-22.0836196585616	-45.3142483217553	-40.8806597742476	
29629778	-6.12557028604154	-7.99302697238271	8.15954661238391	-2.82233403021106	-63.6997172919709	173.08244425424	-43.4309767948324	-47.671983738469	
30029775	-6.15210055890256	-7.94496493084369	8.16525551303359	-2.93012180682536	-60.7275962769902	-113.527751055753	-40.9888727195283	-37.0211532949455	
30429772	-6.14570445426255	-8.16369713458251	8.16349923153084	-3.01152140301524	-68.4244091031924	111.194816194335	-45.2301860271529	-58.3823077162046	
30829769	-6.13160911665314	-8.38454482213079	8.16105278253275	-3.02170509989057	-67.3987245938107	24.7994450939184	-42.2567363903712	-34.4026358099355	
31229766	-6.13624401901319	-8.31623712653566	8.15739189001537	-2.99135578051028	-57.7030767881678	43.8581495140515	-45.7817033121169	-47.5870500608031	
31629763	-6.14117421889931	-8.453488331333	8.14951715788581	-3.07898196159652	-67.3882273760743	79.9635640864027	-45.9441436334074	-36.3504927457279	
32029760	-6.11465804997285	-8.42533580799613	8.15059881078966	-3.1329772136919	-66.0991898359278	38.1267748162743	-42.8063281513009	-33.71363085345	
32429757	-6.12874680594763	-8.63330006068073	8.14594020538457	-3.15321679241671	-58.8019860374342	-44.6374229322298	-42.9348026635402	-35.885585722249	
32829754	-6.08841354140749	-8.8309512781486	8.1681782734273	-3.20177136089571	-70.3562209583047	-24.0606815186201	-43.1058325152077	-39.9207636126912	
33229751	-6.11580652445864	-8.81509707320057	8.15182167554032	-3.27406973102685	-62.208042868995	-81.572694233233	-41.1707214802517	-21.9348290127247	
33629748	-6.10993454418156	-8.79713699508305	8.15320161112824	-3.34760108628227	-67.1278610426574	-138.060909536136	-43.3386120649694	-29.2987114891439	
34029745	-6.08191805364368	-8.89224318237852	8.15610513167609	-3.28731826511506	-56.0981352011034	-14.1219032213933	-43.7235970441657	-24.4183111588625	
34429742	-6.10370664395807	-9.09295433180227	8.15671765132736	-3.40432996431722	-78.1607977138113	140.57837751978	-44.2291747220456	-40.2345429453113	
34829739	-6.11278861708244	-9.11879059188353	8.15756564576543	-3.46829817203862	-72.7211783304303	86.4345599997255	-43.3463885376096	-12.8053135466919	
35229736	-6.0889819899461	-9.23741968340665	8.1732411051725	-3.51852898432892	-61.809863060806	147.424104315466	-42.4612051447389	-43.2173532513332	
35629733	-6.09417577118222	-9.36879867338585	8.15118647747783	-3.58239565638161	-64.3140422981903	17.4244065844237	-44.8520548640707	-21.1836382104174	
36029730	-6.11437128778312	-9.33666655876625	8.15254806855046	-3.63943161883827	-59.8789943576653	91.6982718166634	-45.4995273288752	-21.1444836825531	
36429727	-6.10770576703041	-9.62835283645328	8.15790403634642	-3.5653290181334	-66.1027064381564	128.409139994786	-42.6722413989954	-22.437417678679	
36829724	-6.10952665276649	-9.70750364640067	8.16564142078999	-3.69629371929174	-59.3603860651694	94.8077314585505	-41.9475236446555	-14.8545458980833	
37229721	-6.06105138259945	-9.68740931707279	8.17417265959938	-3.76908767324972	-61.129823904089	-95.0242264587969	-41.6814460329588	-16.2862231268022	
37629718	-6.10259316800525	-9.84074557131333	8.15693776455869	-3.74599240809637	-66.119331184082	140.092160969621	-42.2369995157337	-14.2396358065311	
38029715	-6.07974748623326	-10.0135915139438	8.1561951747008	-3.86853427253153	-73.8861508154369	156.495299192577	-41.8607090287737	-31.8985484509686	
38429712	-6.08948646786483	-9.90888028129246	8.16098380051654	-3.90125124468937	-63.8363121539645	-121.216352871409	-41.9297097758635	-11.7194296627921	
38829709	-6.09598065587543	-9.98939823821827	8.15786835599681	-3.84982245539984	-67.8540296400615	-119.315182488247	-42.0410861733335	-11.2590012188092	
39229706	-6.09553466082838	-10.1093098127451	8.15951085028166	-3.97721843591351	-67.0974445665449	-153.717673878595	-40.7779252928491	-25.7869533536691	
39629703	-6.04381102746367	-10.387504989287	8.15561833229594	-3.92043175297439	-57.5858345179346	-138.41701246077	-40.5212536326413	-21.2616951429678	
40029700	-6.09461824809988	-10.2643275499934	8.16344624018589	-4.09590205415245	-73.0965002914457	96.1644479321686	-42.5357199679836	-16.4741154443511	
40429697	-6.03748475887645	-10.5462327023478	8.16151042695709	-4.0450051934568	-66.5951461441764	-159.698919990576	-41.5516213019915	-18.4476456800937	
40829694	-6.09927689187839	-10.2839451281672	8.17795720507486	-4.19611992098797	-62.937251543199	115.904425265405	-41.2997214779705	-10.004967921914	
41229691	-6.06938620091054	-10.4387977018267	8.15936747652432	-4.25364090009226	-60.7000971612172	47.3552826792609	-42.2594816475984	-14.9410901086923	
41629688	-6.05939510920085	-10.4866310219785	8.1609398074906	-4.26339119585633	-58.7687220279611	76.7034565776767	-43.2817961561516	-19.8381833385418	
42029685	-6.04355697972392	-10.6013306311983	8.16837430930045	-4.21814775061868	-65.0971328942111	7.33344205671957	-40.0468218892489	-13.4751536713448	
42429682	-6.05441426104771	-10.875135029528	8.15681946601382	-4.32381122652016	-74.6369361911891	-138.202019543953	-40.391183932646	-10.4981008132373	
42829679	-6.07381134298828	-10.8291268409763	8.17896982972567	-4.36620840948396	-63.8498836876501	62.0207258690292	-39.5600129577694	-13.7195487966265	
43229676	-6.06042032067566	-10.9365792726816	8.16442827035209	-4.44815987074874	-63.1956530891254	179.512395036631	-39.8649872461166	-15.6750516645704	
43629673	-6.06624685261432	-10.9674707604959	8.15995357401848	-4.45293051988755	-73.1690506604764	-42.1512169261543	-39.9659158014122	-9.38621404906981	
44029670	-6.06836465741572	-11.1858113578923	8.16642515052455	-4.53760279965081	-66.0682000627318	171.113443805036	-40.7271600390242	-6.83509592599982	
44429667	-6.05681154853248	-11.2550508788158	8.15641003202849	-4.59112064281744	-59.9952621172855	105.053157939148	-41.9218907532326	-9.59150992508138	
44829664	-6.03354318252233	-11.2803994197048	8.16379251919402	-4.61129135929593	-58.6155980325161	-12.6914881469437	-39.7032644003476	-5.7236182775894	
45229661	-6.04873738857756	-11.3913676409943	8.16577171781028	-4.57049631857926	-64.6560502120903	137.865702204799	-40.2540088136867	-2.34344809910379	
45629658	-6.04229529628892	-11.6065812269695	8.17583476729507	-4.64128400873677	-60.1230137784216	-159.399134729247	-39.7121903934555	-3.8029174387783	
46029655	-6.05955927169282	-11.5479619890015	8.16149922448288	-4.67446513081587	-56.6674357486674	102.74740079274	-41.481187895663	-2.2520205066698	
46429652	-6.03063002596746	-11.4986712217875	8.1671620421458	-4.80996367611121	-72.2226972188758	-72.5733036084324	-40.1087471978432	-9.30455200376277	
46829649	-6.02913710758167	-11.614539559788	8.16942640322082	-4.89250665007433	-63.191676442693	158.525750110779	-39.5618440427794	-15.1790003448299	
47229646	-6.03191963884576	-11.8761778543747	8.17754389987136	-4.9699528071595	-64.6956958989002	107.52594954876	-38.7958448864929	-0.463886433723917	
47629643	-6.03633114697713	-11.8121959646286	8.1605263444766	-4.89061338281057	-67.8629386982778	-74.7169561552457	-39.6190401685298	-9.07355052046087	
48029640	-6.04462040508035	-11.8231764215703	8.1692723347623	-5.02483845751973	-60.5499390571569	-133.824831250278	-38.3878382500004	-0.218410233830435	
48429637	-6.03189492308007	-12.0710254335949	8.17577893910103	-4.91434708543787	-64.8969947488743	-124.334886749343	-39.3469303412172	-0.419004771974038	
48829634	-6.03766431813191	-12.0182535185361	8.16429129073396	-5.02320511135287	-68.6049053486077	140.779799630126	-39.6867017416185	6.38810295256476	
49229631	-6.03401311957955	-11.9097101590999	8.16403178007241	-5.09535731566044	-61.9022718825902	-10.6490660202349	-39.758259837503	4.11733333664339	
49629628	-6.04420742866229	-12.0232653258092	8.17396626917617	-5.07096091275386	-65.634259679099	98.6345724110059	-38.5827890204763	4.80216193025312	
50029625	-6.03916870374659	-12.1398550975413	8.16553226992423	-5.20144992481236	-58.2109824462539	-78.7771957609607	-38.4793236712964	2.60821425838969	
50429622	-6.04915234414777	-12.2352141520935	8.17543148071991	-5.1559903678076	-63.8238348824855	-160.293612035481	-38.9275367309586	7.93925091826597	
50829619	-6.02580392312749	-12.3345886496378	8.16334065292626	-5.31862718539618	-55.7338050889863	64.6977175854078	-38.5645610895513	5.02691172841165	
