!Keysight Technologies N9917A: A.08.18
!Date: Saturday, 27 May 2023 17:03:37
!Timezone: (GMT-07:00) Mountain Time (US & Canada)
!Model: N9917A
!Serial: MY52401314
!GPS Latitude: 
!GPS Longitude: 
!GPS TimeStamp: 0001-01-01 00:00:00Z
!GPS Seconds Since Last Read: 0
!CHECKSUM:1579117621
!Correction: S11(ON U)S21(ON U)S12(ON U)S22(ON U)
!S2P File: Measurements:S11,S21,S12,S22:
# Hz S DB R 50
30000	-4.2733592776543	-18.1957970666508	5.98509623677035	-130.687803947528	-49.1911613075287	78.1811583572406	-8.22094998542908	-60.4792985008954	
429997	-6.19626666949205	-2.26624643581111	8.08494642214673	-175.977486831305	-66.8816364701992	4.09425882964586	-29.5837443943721	-94.4025407513942	
829994	-6.25004598068639	-1.85653554065997	8.13723316452134	-177.942229074109	-67.2390225867896	169.361031334255	-34.311092293681	-99.9640387111896	
1229991	-6.26736524261408	-1.40443858120222	8.13641787823441	-178.766746212077	-69.9506019322035	162.623058058994	-36.6978486683246	-103.173530865548	
1629988	-6.28065588218841	-1.55201125315967	8.13771010290714	-179.184463116462	-64.2293330975875	-108.275044692819	-39.3832368929892	-108.088839702883	
2029985	-6.26149233460841	-1.41776749691522	8.13656339898334	-179.562348407006	-57.8903428865667	55.9928959705058	-40.5910710304822	-108.33298356199	
2429982	-6.27408653417554	-1.11981365713564	8.16314760755634	-179.469056533504	-69.5994415889984	-4.71809864011156	-43.9295313283097	-115.597884343223	
2829979	-6.24499186884798	-1.04341665764101	8.13968287236708	-179.687562025398	-80.4450135664651	104.090560487154	-45.1746855733025	-116.852519146677	
3229976	-6.27382081096078	-1.3059877881382	8.15250540164935	-179.83793078405	-64.3511068247594	-117.211341401349	-47.5233204541689	-111.644437827715	
3629973	-6.24037401603197	-1.27248878440063	8.15596783310947	-179.922982200556	-58.2124751933734	27.4269691992013	-44.1666913819914	-137.18589213347	
4029970	-6.26046336273995	-1.33706447317333	8.16753482847814	179.948827416757	-64.555860469557	175.050668327876	-46.1095536590321	-140.670464452245	
4429967	-6.22267834834267	-1.47432034911659	8.17490251552134	179.725923084773	-62.327446284698	-93.97322005984	-47.1198912611388	-125.16225872132	
4829964	-6.25216937236113	-1.40601454063158	8.16517902290689	179.67442523443	-63.5652082284412	94.4576684693021	-46.8392286167229	-123.290719476378	
5229961	-6.27176718519932	-1.60968994151721	8.16616752384643	179.632240847486	-64.0657931554094	-80.3143213311203	-48.4918171442895	-118.891077214986	
5629958	-6.21879459377949	-1.77004637311574	8.17125238955944	179.542578118476	-62.2013108588388	-65.486382876875	-47.2391758403432	-126.244987292378	
6029955	-6.25232421072406	-1.55078149873065	8.16746602850715	179.441577799704	-68.198484247664	-167.503198731809	-49.7633415949035	-136.715351390958	
6429952	-6.25749648613272	-1.83228714779503	8.17931582561755	179.347351009833	-67.8619257882119	176.798177946875	-46.8868808230967	-129.005042776735	
6829949	-6.27756301832327	-1.87721107551797	8.16449833488113	179.224089679985	-64.0626277183355	153.221946524081	-50.2045870322869	-123.291573371108	
7229946	-6.25500040677852	-1.93462663088551	8.1794288787591	179.085966610418	-62.0896475397163	156.988649792428	-44.9576787682764	-118.840372475997	
7629943	-6.267218294033	-2.35930399995243	8.17751058606039	179.051448389995	-76.9908437604601	-58.7314453916091	-49.4038488370367	-126.936244777025	
8029940	-6.22295082184004	-2.51747116251291	8.16133792846563	178.904880823591	-60.1093949286384	-56.8022752159228	-47.5206215948057	-117.664648691846	
8429937	-6.24028822263551	-2.49961766700594	8.1803451844216	178.912247650263	-81.1305799362587	-46.1565782875071	-46.6444969942863	-130.637344869681	
8829934	-6.25870887047096	-2.34352110957343	8.17557619584399	178.812206848663	-65.3079567676467	-6.06881327741404	-47.3697889757026	-128.256746841385	
9229931	-6.24364353940772	-2.64495954891824	8.17785027238851	178.730232373015	-61.149445770976	96.5386399256721	-53.1414145265254	-153.555250270708	
9629928	-6.23069227477924	-2.82599698556721	8.19983476211281	178.635117662216	-72.5182176672238	-33.223101874414	-49.4860061552964	-117.634080181951	
10029925	-6.24687528334949	-2.93212715719572	8.18076624915075	178.629066079969	-66.7457333630424	-13.2351241609015	-47.3511351232231	-136.593249804255	
10429922	-6.24065617953698	-3.02350044396658	8.17853451892437	178.465072838687	-64.5025905189669	-120.653380692168	-48.9390226553674	-148.806766138304	
10829919	-6.22638838824913	-2.94737187577169	8.17889289546185	178.556039462209	-67.648793590006	37.399229939587	-48.657960733646	-115.403993407729	
11229916	-6.26827548425209	-3.40033770522793	8.18134893721979	178.302819968864	-61.3934232581127	-37.9165129360912	-51.9909328316641	-141.381373491361	
11629913	-6.23701708854416	-3.35867229759074	8.16890900670598	178.225682657517	-63.2772249361838	20.6496631322615	-46.8242136891218	-108.194154283518	
12029910	-6.2447845419905	-3.41510102625289	8.18378862938976	178.310736267062	-64.274360746558	-57.3903857349004	-46.5936075906559	-119.847643001069	
12429907	-6.23803570794096	-3.51059222838897	8.18423909498832	178.073611377936	-69.9815202660379	14.2490432539437	-50.2321724863614	-97.1122400555925	
12829904	-6.22211265422318	-3.50209730460035	8.17830878391731	177.952445123709	-65.5265123601213	160.686382115317	-49.7689782936943	-141.272383052267	
13229901	-6.22201430104091	-3.90888931104016	8.17696900882328	177.931137380425	-66.6753997121807	0.941419032033374	-47.0544612157611	-123.622201399187	
13629898	-6.2468241722288	-3.86320611054963	8.18203383212091	177.796710464534	-76.0571361838102	167.899917792616	-47.7034580183102	-105.330744192767	
14029895	-6.24306728035216	-3.89802472941035	8.18409003350195	177.750121066501	-83.7924111100713	-158.446466038772	-47.8942115868197	-127.742086761245	
14429892	-6.22062352485427	-4.1510833262565	8.17741610424721	177.658834237953	-68.8047447910328	-154.166705867848	-52.9534517842651	-112.913530376637	
14829889	-6.21503594773479	-4.24329021926228	8.18881272016692	177.709696251974	-64.3233078287899	-95.0835132860101	-47.7560893374937	-116.164694717261	
15229886	-6.22111007174107	-4.40909757531443	8.17815212483354	177.571915104062	-64.8210791228457	106.596049999352	-50.4339017510522	-95.1028950502434	
15629883	-6.21591902009087	-4.2842101747154	8.18791807560685	177.538768969833	-70.5113862695824	-95.708377086929	-49.3038764714405	-108.340407551032	
16029880	-6.22818902732228	-4.45937696368368	8.1777686895343	177.445471456621	-61.4640982620412	-91.4273760920828	-49.5368744523669	-107.220373680976	
16429877	-6.22920335985089	-4.76606772653119	8.18245775515455	177.331951152582	-71.6260782905219	-74.1905981216136	-50.0885256606642	-89.4702941237727	
16829874	-6.21382374133017	-4.8271046598736	8.17642613958588	177.296140290017	-63.0314516671452	-72.1619745070017	-47.8788283809507	-115.284115173308	
17229871	-6.2150278040995	-4.8488511348525	8.18389443982912	177.238103869635	-68.5525938437457	-2.26382733721642	-48.6501950072699	-98.6430298119574	
17629868	-6.22872072320505	-4.83122812140015	8.18985116676743	177.193859532899	-59.737439396001	-108.156171176493	-52.9050661630901	-117.337273999053	
18029865	-6.2359369937597	-4.86333154710134	8.17950007735128	177.12598367159	-76.252319373936	70.4345834450706	-48.131032688051	-89.947004453599	
18429862	-6.18021555258201	-5.03285080767875	8.19498350049738	176.912555807126	-58.5842022330319	33.9089341571756	-48.5070059279612	-97.8258449455028	
18829859	-6.19137766509095	-5.24779261484362	8.19356300261959	176.844252688097	-62.0115032493577	-2.27145042343999	-47.008670998166	-82.2393105605317	
19229856	-6.18097360920135	-5.39396813345923	8.18482721546051	176.883503172793	-60.5562009580412	91.5232828619274	-47.7094533754957	-70.5125908881004	
19629853	-6.20913407882401	-5.53713210937308	8.18575293566358	176.621655752605	-61.0659178511002	-8.96040856288647	-47.4192577888172	-109.606469295545	
20029850	-6.20061650650212	-5.44596809067572	8.18842413283976	176.744180045469	-66.6608260781085	156.79550870409	-48.7582115217339	-55.7801283464338	
20429847	-6.17515731663499	-5.62670244056352	8.17899936383542	176.60833785782	-74.384300405094	87.7452923079644	-48.3974792596914	-124.253589073747	
20829844	-6.18106709469965	-5.57036015676673	8.18499835544537	176.505633179492	-62.8991188365308	164.531681705665	-49.7726989068884	-96.1598777841097	
21229841	-6.21841250477134	-6.05883288953687	8.18033287423101	176.382149064194	-68.3948882168112	-109.753759273667	-50.7443914766461	-101.191261620188	
21629838	-6.17691715042285	-5.85827408675201	8.18985987575427	176.373316253737	-74.2465313582046	-114.612029874977	-50.2328800421841	-60.002972255999	
22029835	-6.1989920991683	-5.98394224723388	8.17012731967112	176.293897717969	-67.9022044984001	-137.069073539253	-46.3287394739917	-100.356193944494	
22429832	-6.18730492343105	-6.33408834897944	8.18324651151251	176.210011001828	-66.2682405398631	53.5433680594172	-50.8844691740639	-92.0514695931267	
22829829	-6.14812349771552	-6.28775692349192	8.18434373164262	176.14096562986	-58.6383006956794	14.184148687442	-47.8254307814171	-90.0876218461009	
23229826	-6.19189043787617	-6.52444410492348	8.17071981915338	176.083241640859	-66.9349189954356	88.5109347923924	-47.2692208837097	-76.9838279963235	
23629823	-6.17272102608929	-6.35694389445872	8.1803422715189	176.046482285316	-69.4884829297048	-69.6048483093956	-47.6630628771159	-87.4798216359438	
24029820	-6.1748876311763	-6.64614560012922	8.18672751443422	175.958529051065	-64.6262734630697	-47.4036119016241	-48.1348780888946	-76.3657946339643	
24429817	-6.18150959723446	-6.78760735502869	8.18833250569724	175.884789574858	-60.9765549285906	-28.2877190755938	-49.5520369797191	-41.7745927771863	
24829814	-6.16125710375932	-6.80190207294676	8.17986001560083	175.792753354262	-60.6793841880513	118.255858000801	-52.2941748719205	-50.8326894503625	
25229811	-6.19838659431874	-6.88253895832326	8.18736391467802	175.751855826641	-62.1817984095156	-149.640712399659	-50.5701684465211	-70.8606919181435	
25629808	-6.16439112252963	-7.06286349920325	8.17737872563576	175.60786193572	-60.7483295954645	-126.526682241897	-54.8748361346178	-53.3511202209294	
26029805	-6.14264207763625	-7.26611621654561	8.18312070443428	175.544308144254	-59.7889066329082	-28.9475062276546	-48.5415515627574	-73.8995609076628	
26429802	-6.15521950489967	-7.25516884132259	8.19232455994653	175.440842285326	-60.4556036664062	-0.656800101172185	-46.1922723098843	-74.8010010958226	
26829799	-6.14362664257891	-7.42134645945755	8.18964854692592	175.432621669441	-77.5018846068514	-47.2563404103135	-47.2497831903806	-53.7676799463624	
27229796	-6.16463394215594	-7.4015547353081	8.17907237325749	175.413601994168	-73.9718676042135	62.9147650083424	-46.5115553578956	-36.3571479379145	
27629793	-6.15729482960629	-7.401467983121	8.18717467610051	175.249086945284	-62.4352028123698	150.839223991751	-47.1803369610532	-61.0320202871267	
28029790	-6.15151973465502	-7.53033995896525	8.18181124247934	175.209710809403	-66.2418069969908	3.68648249866899	-48.0093227921756	-69.5108161510136	
28429787	-6.14293779920322	-7.47783224909885	8.17545692820526	175.160335231205	-67.4030265272393	130.031714800764	-45.2359949523318	-40.8769471529838	
28829784	-6.11788326221603	-7.85559469995488	8.18685677041506	175.041725464263	-84.7389415233479	-169.21021727638	-47.3782179350708	-45.548592550271	
29229781	-6.14452830307117	-7.86879447070617	8.17048802173438	174.990696753729	-65.6063562513571	-83.9903396094591	-47.3935949052035	-48.6878521567979	
29629778	-6.14011150601493	-7.99243203412729	8.17402568169059	174.983362547094	-58.9845162554917	-71.8124271857974	-43.8797218930404	-48.7828680405337	
30029775	-6.13379972173032	-7.98758933895476	8.17638979900209	174.843229353197	-79.8120674508998	60.5059548022392	-45.7644616434948	-44.2717417691706	
30429772	-6.16172507255563	-8.11743857713406	8.17934781464601	174.758036141826	-65.478962559672	-162.649805991563	-47.5621108712292	-59.9104707105249	
30829769	-6.12422428409686	-8.18002743200624	8.16659422410002	174.723627820314	-63.4454117509566	173.159132497145	-44.454398718706	-27.9600750020114	
31229766	-6.12178922091656	-8.35410620274945	8.17811091544626	174.695772068405	-70.1613867427893	15.6721629604748	-46.7410010156806	-51.9261731115198	
31629763	-6.13341247898624	-8.52427223737891	8.16519999804718	174.549039334568	-61.7160715069576	28.7882033581149	-44.6187280090294	-31.6637032142081	
32029760	-6.13617838466433	-8.40892548107835	8.16688036880685	174.493406509156	-62.257694507198	109.764260519168	-44.4110703134455	-41.1241815672878	
32429757	-6.1256915679534	-8.66385218602043	8.17172216304026	174.401240040449	-61.1984167997619	-76.7680318138203	-45.065138784932	-43.3026471254169	
32829754	-6.10683163519079	-8.95011616164832	8.18024959952975	174.322484923477	-65.3784557574017	62.1309334093578	-44.0187111286888	-44.3996961420478	
33229751	-6.10552021457125	-8.94066922013935	8.17662485021186	174.227083938798	-63.1833889801815	85.5549944780755	-42.143315738304	-30.7400247713802	
33629748	-6.10788461472918	-8.74291245839676	8.17148528176596	174.134890565263	-63.8688535604177	163.940090235114	-45.5049421609532	-21.4629424107928	
34029745	-6.09207893357235	-9.10421862760945	8.1698326935501	174.154154283458	-70.9486767471254	26.2511136669557	-43.3799609256139	-43.0701916190818	
34429742	-6.10665394642725	-9.07561648907532	8.17794450755779	174.058450627886	-62.8371514095321	-3.5876859526805	-44.5152356662217	-33.2877193495659	
34829739	-6.09401650493346	-9.09770717447256	8.17611807188256	173.928330011861	-66.9703601965861	91.7457649698331	-44.6930039523324	-17.4297289483939	
35229736	-6.08727136848314	-9.3639583221162	8.17427759375222	173.8335237785	-83.2050380280188	61.2407198571113	-42.6441790431583	-41.6216511323366	
35629733	-6.10102078953132	-9.22837842769624	8.15354051851043	173.723743323906	-59.4914950309147	-121.811018658981	-48.5671534058024	-19.5896617579997	
36029730	-6.12819592513172	-9.32061282268837	8.15830994704815	173.701661729492	-63.1785990269598	-126.716621736486	-45.8078894947583	-17.5647701587412	
36429727	-6.09875555898352	-9.55589593524255	8.17975648124362	173.707744593707	-59.142403888237	26.3062904602391	-44.6593954813508	-28.7228945414496	
36829724	-6.11001461436024	-9.65077676216438	8.17174501458947	173.57881233977	-67.8014057555775	83.6571634574713	-42.2779413250996	-16.5678671733079	
37229721	-6.10853222200507	-9.68381154862463	8.17489533431672	173.44288283502	-62.0127166488504	-164.575209973967	-43.4894315837991	-19.2863110119921	
37629718	-6.09971584882396	-9.92575653456988	8.16073387182995	173.406030405498	-60.2960478850949	-39.0586202163884	-42.8743557638819	-13.5588569098298	
38029715	-6.07960041409643	-9.88635169910987	8.1621172563988	173.31779938331	-67.0508004692513	46.962013543466	-42.7421893918961	-28.0529564864054	
38429712	-6.07408843922873	-9.71963736075083	8.17224717718519	173.226421988921	-64.3028704088192	-157.435016624068	-43.3372474899961	-18.192111822882	
38829709	-6.07659235608586	-9.789281083859	8.17552908772365	173.20272331041	-65.8393468146214	74.6952550604952	-42.0803906463782	-17.2145443998808	
39229706	-6.09278829672167	-10.001726687253	8.1743140061681	173.08364005067	-62.3252257597389	-113.311863194675	-42.0409870689074	-31.2059588620488	
39629703	-6.05893141145668	-10.0804460279754	8.15724912790268	173.108820507467	-65.813046234993	-115.627831004274	-44.4040328747878	-21.345445896742	
40029700	-6.08790664983586	-10.2039996416161	8.17202032610681	172.838658454934	-65.4350691627858	-83.6041488574666	-43.9242675245603	-22.224344797091	
40429697	-6.07869910950605	-10.448926384172	8.16544508146261	172.847863679185	-53.7309057665879	-32.1383051531058	-45.5785292339706	-26.1947104570648	
40829694	-6.08753687153911	-10.1858301097327	8.17594939877797	172.725450799871	-65.653137072164	-116.400636454994	-41.8805230628115	-0.738420037978892	
41229691	-6.08614361655454	-10.5467098196427	8.16281740646784	172.692718266772	-64.2172003399499	113.262545590671	-42.3083194925338	-19.0104264896613	
41629688	-6.06109690592017	-10.4355496633808	8.15668270898686	172.579541957976	-61.2440999204201	-167.86246938137	-43.0451550881635	-16.4476650035673	
42029685	-6.07963150188483	-10.7526740654081	8.15861327533998	172.61903466999	-67.363851369817	-45.8375315338325	-41.8102091023127	-18.9429499009661	
42429682	-6.06779184199343	-10.7588941085287	8.16877078719381	172.478623438868	-66.3412686315702	70.256161551686	-41.1059939141304	-20.9627730650637	
42829679	-6.0573508255193	-10.8881297326704	8.17420377849771	172.405682673613	-67.9615266393218	-139.159609450307	-41.7439818553118	-11.2497517243516	
43229676	-6.05853271093161	-10.896676015799	8.15768752372551	172.261507287052	-56.2997040852012	49.884719782912	-41.0922116589535	-15.0063840656325	
43629673	-6.04480562958134	-10.8278679581615	8.1581731930127	172.257182876688	-56.5213644839736	166.411807284451	-40.9938958841638	-7.68319950495213	
44029670	-6.06942175987645	-11.0551506602591	8.15626825667059	172.157615340049	-62.7034849296197	-46.5258126872432	-41.7013719656013	3.41177482770142	
44429667	-6.07615936396108	-11.2027838387243	8.15095762376445	172.094331081805	-66.0962052887488	-69.5430392542012	-42.05246724227	-2.52558471642706	
44829664	-6.06202446637568	-11.3141165174585	8.15511552041002	172.025668990263	-62.3460469171607	-64.543236243026	-41.0626360412676	-15.4039982442492	
45229661	-6.04559152623146	-11.3476464556248	8.16241017181143	172.052357542766	-61.3835801320182	-138.058391239886	-39.732349979689	1.2257672651766	
45629658	-6.08008640518845	-11.4893612151295	8.15607140111261	171.890185353963	-73.1463530547616	-92.9035531815445	-42.151158935206	4.17672269644499	
46029655	-6.04618890889458	-11.2827515849799	8.1621286632152	171.771193989624	-63.1299790698983	31.6199068417482	-42.1477119735494	-5.84246919796992	
46429652	-6.04031147913465	-11.6713064129368	8.16229685299259	171.667505964258	-52.5888972269582	92.7103342169135	-39.0781942344791	-11.2440707051153	
46829649	-6.05026893827305	-11.4926268747031	8.15327627335335	171.54676096542	-88.0571322595941	72.4629187317983	-40.628977584602	-12.3287335231443	
47229646	-6.0600100243674	-11.9030228287368	8.16957281356517	171.450092189841	-66.7115337609423	-21.097971996325	-39.4305842192797	-1.38320936080983	
47629643	-6.07037250504202	-11.7076246169628	8.14361552514292	171.482043667015	-62.2081550963777	-48.1965636738713	-41.1063942487218	-5.39213106710467	
48029640	-6.04364454956967	-11.8475645346817	8.14440029957382	171.278153682382	-61.0944680916846	-46.3968671697203	-40.8999731642801	7.49372767997899	
48429637	-6.03616888979908	-12.0539413648845	8.14756745826197	171.364139573665	-67.9356314127868	-15.8005909490998	-41.0629344578692	6.36787406111245	
48829634	-6.0445412274627	-12.0246342175339	8.15849447459481	171.246398112981	-78.5587384394453	-174.405795334783	-39.7168547642451	5.63796751731155	
49229631	-6.04045020938867	-11.9328035947793	8.14981878524772	171.180113440501	-64.9845025950369	-53.5894248527354	-40.2951113659217	6.23566332374742	
49629628	-6.05040839362884	-11.9165374447512	8.15550829615689	171.052560364573	-61.8569592381604	129.700806260095	-39.533388152466	2.01503110545874	
50029625	-6.05534028417951	-12.2775304582205	8.15981521439484	170.985434059466	-56.3888734457424	21.682240537409	-40.3768074126878	-0.858131504505288	
50429622	-6.01936986897637	-12.0929791711037	8.15823787549849	170.973916808391	-64.4825100865526	110.892529307413	-38.6785891093139	6.86133381265838	
50829619	-6.03841540221816	-12.3510874397553	8.14276473501717	170.821777133591	-62.7321902572891	39.0709561070804	-39.5559526714774	0.927404354180921	
51229616	-6.01853028777624	-12.6422872488327	8.14997953045469	170.743082686907	-64.293885827376	131.47464157374	-39.5594332680923	9.17606966349725	
