!Keysight Technologies N9917A: A.08.18
!Date: Saturday, 27 May 2023 16:28:40
!Timezone: (GMT-07:00) Mountain Time (US & Canada)
!Model: N9917A
!Serial: MY52401314
!GPS Latitude: 
!GPS Longitude: 
!GPS TimeStamp: 0001-01-01 00:00:00Z
!GPS Seconds Since Last Read: 0
!CHECKSUM:0470450159
!Correction: S11(ON U)S21(ON U)S12(ON U)S22(ON U)
!S2P File: Measurements:S11,S21,S12,S22:
# Hz S DB R 50
30000	-4.44762766487117	-18.0913376907006	-7.08864368549872	23.0203295045841	-7.06952541871847	23.2666301400085	-4.53282895927468	-15.9195472303077	
429997	-6.25449481458158	-2.00786459655157	-6.20499762599603	1.63160728835778	-6.19576658638072	1.67094251670825	-6.23189813988459	-2.20096974194698	
829994	-6.27897365429252	-1.64006645986267	-6.18489739645367	0.746082051788468	-6.20072527471816	0.752403654453083	-6.24659308143469	-1.58322703132658	
1229991	-6.27670747441243	-1.37822607582091	-6.20217796503098	0.109278478803864	-6.22924747853921	0.233986281864215	-6.2638325228394	-1.42146507618144	
1629988	-6.2810633301869	-1.6461134643203	-6.20072171504687	-0.0465475496104269	-6.22709236937533	0.109217015475598	-6.27206910801209	-1.21887651217147	
2029985	-6.30198502873164	-1.4896838920902	-6.20188439806515	-0.335680065167015	-6.2305049832505	-0.164673080966344	-6.28995981536672	-1.37535276448481	
2429982	-6.29463169174393	-1.03801350621708	-6.20144022891533	-0.156699195038428	-6.19778229650911	-0.246514819089071	-6.24019917536368	-0.792646251654618	
2829979	-6.27596236478949	-1.01984053737617	-6.23547412175273	-0.310000432995231	-6.22047799083418	-0.346563144228681	-6.27755349307116	-1.03280753449973	
3229976	-6.28630754851542	-1.11534460668601	-6.23452121556269	-0.486153056307149	-6.21910477475251	-0.491599042248738	-6.23814171790007	-0.87810985606312	
3629973	-6.25914704771895	-1.07676674099192	-6.19485312921857	-0.504275054631847	-6.19151950059851	-0.648547703164704	-6.27157343322528	-1.15745047307697	
4029970	-6.28066980616193	-1.30385214029816	-6.217040128724	-0.524414114138618	-6.17992979730498	-0.739146444459749	-6.23387027622468	-1.24843790562471	
4429967	-6.27601662088217	-1.30353041560124	-6.20242035999873	-0.806738142235782	-6.20741341459308	-0.826287607945326	-6.23300886705711	-1.3746090886678	
4829964	-6.27925258330734	-1.31731544637736	-6.20506217810541	-0.783852456803558	-6.19197234400868	-0.753462349101719	-6.21892976004691	-1.55885989097163	
5229961	-6.27333485471585	-1.71189558291961	-6.20192648511753	-1.01338437584116	-6.21503099150849	-1.11358450573417	-6.23182722129143	-1.19088199593751	
5629958	-6.25760967355265	-1.82415290211645	-6.21761925124344	-0.968769089062067	-6.20164587580827	-0.94077168314005	-6.23554133077981	-1.68871206091258	
6029955	-6.2668799737503	-1.72422807572234	-6.20663609634182	-1.10660531284308	-6.21938008451185	-1.18979901065753	-6.26926842679346	-1.78659733502294	
6429952	-6.2778178084185	-2.046029454284	-6.21323525797766	-1.13051294326905	-6.23348192835461	-1.21056061280347	-6.25036317143557	-1.96266662527828	
6829949	-6.30256457144212	-1.97718118384829	-6.22111182724183	-1.34981679565332	-6.21764668380678	-1.32005408182588	-6.22294764616121	-1.82779897746899	
7229946	-6.27950036107329	-1.92182954061053	-6.22531484301262	-1.34456718216666	-6.23653231347702	-1.30370139114481	-6.24330813749144	-2.11007672852519	
7629943	-6.2979445434263	-2.2745130294708	-6.21487184852442	-1.4678962982631	-6.21491212814015	-1.61338693706522	-6.24587692714873	-2.11500534716486	
8029940	-6.24992924739753	-2.37284312540718	-6.24190333108103	-1.60422456946844	-6.22179460831664	-1.60775767333183	-6.26758896969376	-2.29901022870128	
8429937	-6.27767210487107	-2.41971322802479	-6.21911908320755	-1.56441129583309	-6.22893014660602	-1.88425920243971	-6.25041015514108	-2.41713903664552	
8829934	-6.27604379012244	-2.43866017055796	-6.22086136533406	-1.81292001536248	-6.21117834680766	-1.68768354267167	-6.23666854682688	-2.38675345268667	
9229931	-6.2594653158752	-2.72005094903389	-6.2319585923698	-1.79989915319572	-6.23314442320063	-1.8810669929375	-6.25205385407034	-2.33041034324164	
9629928	-6.27692226015385	-2.76320548645278	-6.21434662893587	-1.83842230307368	-6.23647356686797	-1.95142108012956	-6.22711271569858	-2.69476251554223	
10029925	-6.26450071109869	-2.85932479500791	-6.2151410395719	-1.87322443145645	-6.22091623183893	-2.11044344831096	-6.23145780358364	-2.84632888596182	
10429922	-6.2422131551403	-2.96439818050827	-6.21906244776053	-2.30991809232338	-6.2384297721376	-2.1901304799515	-6.23282648040518	-2.70515330018638	
10829919	-6.27808947363957	-2.95039868260145	-6.21169957308884	-2.00756497764937	-6.22324166631428	-2.2863888394815	-6.22353549519809	-2.82577711707044	
11229916	-6.26578456184123	-3.29598628845816	-6.2066778585386	-2.35875654412973	-6.21103315186707	-2.39816294011692	-6.25430089184347	-2.91909463549499	
11629913	-6.24953736642546	-3.30373473681518	-6.22426592199997	-2.24984340685154	-6.23825193153882	-2.39087461595681	-6.23029798108667	-3.28731575941777	
12029910	-6.26848759481189	-3.35101943606785	-6.19701316962959	-2.36424092272255	-6.21722850586364	-2.51467480526506	-6.24614811631106	-3.17063840836383	
12429907	-6.25697931429051	-3.52992366947605	-6.21922982908327	-2.52426518434082	-6.21775397441069	-2.54222283822846	-6.23136867372121	-3.33865201543481	
12829904	-6.25113964961523	-3.56138215116892	-6.22446519663123	-2.72731019211061	-6.21605269089561	-2.66756559010248	-6.23000695317481	-3.44136065460222	
13229901	-6.25917050432064	-3.69880241154622	-6.21019263042497	-2.72610251604139	-6.21633803412718	-2.74246430302116	-6.25880554066799	-3.57802110368982	
13629898	-6.27332892932902	-3.84314695422604	-6.21662843930959	-2.89748966958657	-6.22458157267639	-2.85315912114674	-6.22053859139293	-3.65456866812513	
14029895	-6.25107263598771	-3.90531155915925	-6.20827405268041	-2.81216112658416	-6.24378432798098	-2.98665272663526	-6.23940011745381	-3.81307268270009	
14429892	-6.24176950347936	-4.12058127412777	-6.2221870128878	-2.96327328635817	-6.23984870392722	-3.05349008601688	-6.23420047864393	-3.81993474981528	
14829889	-6.22390552493334	-4.22865735682606	-6.22266485566226	-2.99900076253344	-6.23826573471838	-3.12022577268887	-6.23947648192534	-3.99591507571957	
15229886	-6.21711742691883	-4.38265834055189	-6.22304953283104	-3.20998857608975	-6.24089469862156	-3.37559025419058	-6.23761271661974	-4.14563913875189	
15629883	-6.2348067495561	-4.24648231671751	-6.21410525027833	-3.22621954740109	-6.22823137473769	-3.35840486938578	-6.2217502625113	-4.03279724754088	
16029880	-6.24804328150463	-4.53759034287761	-6.20415605856571	-3.34343466426958	-6.23163244842327	-3.49593151257221	-6.21393937464143	-4.23914285996302	
16429877	-6.225979202133	-4.77864977410743	-6.21488754068016	-3.48246454009025	-6.23179974366709	-3.56637991536669	-6.20022463854896	-4.46639719450776	
16829874	-6.20785475485501	-4.80830637658303	-6.22428188583474	-3.35162576955184	-6.22349596250839	-3.6076601041514	-6.2163995794012	-4.40415424985627	
17229871	-6.23164423412415	-4.72493094364642	-6.22628636880283	-3.44416126997676	-6.23073156285355	-3.59144231288209	-6.20608984680196	-4.66843342769586	
17629868	-6.21431039921489	-4.88570384515958	-6.20888922596826	-3.59910444871384	-6.24114463977095	-3.77928677803165	-6.2050011191941	-4.40229335199503	
18029865	-6.24012208188045	-4.88968181940947	-6.22804037903873	-3.73535067306781	-6.20761158240205	-3.79778453536704	-6.20732189372306	-4.78499819609912	
18429862	-6.19988936403359	-5.04419825860199	-6.21848199426639	-3.88712067121633	-6.24161310947171	-3.82705277889515	-6.21609505764665	-4.82983092206529	
18829859	-6.22584042995267	-5.27771919170919	-6.21702298604291	-3.89100695424538	-6.25039612278033	-4.04096773527631	-6.20808856718807	-4.77548597001659	
19229856	-6.23480784620101	-5.42136128023246	-6.22684135472655	-3.89390634811437	-6.23514067281149	-4.18293792230452	-6.18831086806947	-4.95700828990464	
19629853	-6.2184818567096	-5.42198367040468	-6.22773088883746	-4.15242611376919	-6.19016511163912	-4.20698723524528	-6.2073961934325	-5.18693039659799	
20029850	-6.23275067084721	-5.55826631320063	-6.20896871546684	-4.20761637547475	-6.22290485281287	-4.18717409192406	-6.18511963648689	-5.16844039134072	
20429847	-6.19097854022381	-5.54684336086882	-6.21460660614685	-4.36222218004142	-6.23256222694104	-4.33702075739714	-6.23447875313677	-5.41729703938365	
20829844	-6.1857314386522	-5.68534550405249	-6.22505712960796	-4.35860815576616	-6.2328931979858	-4.43071579629825	-6.20451723605379	-5.39190628695885	
21229841	-6.19893591205863	-5.88518656647289	-6.21201900835502	-4.51431400996532	-6.24123660378062	-4.33909438164171	-6.22191345895522	-5.49843163125856	
21629838	-6.205535760884	-5.84216495563742	-6.22903192432004	-4.5293588344275	-6.26170322118211	-4.60519814139783	-6.1776800524563	-5.61945155173887	
22029835	-6.17551873556146	-6.064138876744	-6.23776825462151	-4.65603627427452	-6.23168320288866	-4.69145481153102	-6.21637682751454	-5.91404411353526	
22429832	-6.19543940565946	-6.22161025285708	-6.21382183020394	-4.675119132422	-6.23588154017913	-4.79367098500529	-6.21262589576848	-5.83370518797267	
22829829	-6.17935795053001	-6.20721011603674	-6.22623358151798	-4.89131657786342	-6.24654952148452	-4.87582541109066	-6.21243409049822	-5.90098272760981	
23229826	-6.17052101549701	-6.41531433589307	-6.24059015586442	-4.84483520681786	-6.24584235836603	-4.96891154719085	-6.18571878107283	-6.03921134829403	
23629823	-6.17267177158479	-6.43825648675502	-6.23596510029523	-4.93763873732214	-6.22943309421063	-5.00636930440584	-6.21477787783253	-6.06557046189989	
24029820	-6.18853948388061	-6.7067574170192	-6.21951459851826	-5.01825921806861	-6.24401744538796	-5.10521762086153	-6.16944286144078	-6.13741636227321	
24429817	-6.1777595266972	-6.74326608968222	-6.21962398494314	-5.23406709061142	-6.26062584905715	-5.35492451419352	-6.17428418871592	-6.11882348743815	
24829814	-6.16834220199351	-7.02803948544744	-6.20471837776067	-5.27270950137852	-6.2331024499554	-5.31292147383202	-6.17471725541816	-6.29398474927879	
25229811	-6.17569472014936	-7.00955224859019	-6.19809812907047	-5.28796189813894	-6.25966939185376	-5.43161657449426	-6.18674530420497	-6.53694143379169	
25629808	-6.13993927235871	-7.17120622199842	-6.20799118633489	-5.50319901395331	-6.23139174720712	-5.56929440017596	-6.16851844284505	-6.4831053438867	
26029805	-6.14936261843567	-7.33283655636966	-6.22411287650002	-5.59937672312303	-6.24279668914985	-5.65419581354683	-6.17620902308439	-6.71281697613262	
26429802	-6.17880329940464	-7.20653862038503	-6.23394258643236	-5.67533535060837	-6.25336294242128	-5.6738022218122	-6.17278667602784	-6.8227856195884	
26829799	-6.14613602877773	-7.35672656344668	-6.22076036742245	-5.72334928188388	-6.23144941623892	-5.64606682288107	-6.16523995611588	-6.88387884477839	
27229796	-6.18581232733063	-7.38866860076685	-6.22177435447291	-5.80543533784514	-6.27384928637956	-5.79415506528782	-6.1525744118724	-7.00511888633507	
27629793	-6.15306450528661	-7.55636799779141	-6.21576943281176	-5.81592573963677	-6.24405687754313	-5.92444787036915	-6.16847707445067	-7.25906671381224	
28029790	-6.14733584914371	-7.51692083551299	-6.21902195712906	-5.80476281148391	-6.26958782474783	-6.06103387593764	-6.16455726197345	-7.27528701508766	
28429787	-6.1566676023896	-7.60651888096031	-6.23899020807115	-6.10123319683411	-6.26461470113292	-6.10710460861519	-6.15329487349681	-7.30789638442546	
28829784	-6.1318222599111	-7.85113499384978	-6.24042253846451	-6.11735740764975	-6.25431598201882	-6.21442286217304	-6.17168596309451	-7.45323140296247	
29229781	-6.14334811955711	-7.96829723443513	-6.23641534647769	-6.16493866660077	-6.24600213333959	-6.30681353126414	-6.13860582322187	-7.51033691017169	
29629778	-6.12780082427375	-7.83529871351198	-6.23376991578198	-6.15016713537696	-6.26906007888856	-6.31679558378981	-6.13612916630053	-7.59519107242934	
30029775	-6.12845197454422	-7.8795558637516	-6.214466911138	-6.35682666860018	-6.25995908165988	-6.51463046223684	-6.11435466888458	-7.81964597142865	
30429772	-6.13741031041811	-8.08279864147812	-6.22140210639143	-6.55534211094502	-6.23606648530082	-6.64159514974103	-6.14330233286343	-7.85498480750766	
30829769	-6.11450534997002	-8.40389643734408	-6.23285630736171	-6.57393757028534	-6.25125727157809	-6.65842616589744	-6.14073898143497	-7.88384237570198	
31229766	-6.0983237248058	-8.40712473287135	-6.22867741405204	-6.49364413148195	-6.23725841161324	-6.81983592412967	-6.1436252666507	-7.86591745737761	
31629763	-6.1272259738334	-8.39253474950601	-6.23080049492122	-6.58146235287435	-6.27163542073636	-6.73525890964643	-6.13206449442901	-8.06191173740619	
32029760	-6.12277948336749	-8.37908054617827	-6.22116837981836	-6.85414585715697	-6.2650266637651	-6.83713959291611	-6.12974322546569	-8.24220202082695	
32429757	-6.09754088914844	-8.53102199362628	-6.22702823963585	-6.90726136598672	-6.24919027197993	-6.93951765815547	-6.17611832480882	-8.33867595591533	
32829754	-6.10315669750781	-8.80481906472794	-6.23406852859489	-6.96826619413022	-6.25245408731752	-6.9967696482429	-6.12032280242257	-8.197156866279	
33229751	-6.12269114868483	-8.8651732000272	-6.22466847378764	-7.05967242632864	-6.23073092628154	-7.23123804698291	-6.09656319797342	-8.44328096691629	
33629748	-6.11090827098983	-8.95092775795574	-6.242124691702	-7.36605690532614	-6.26054310838091	-7.30481047012538	-6.12594870879517	-8.54350792614928	
34029745	-6.08335847310809	-9.03195048956022	-6.26812944059399	-7.20781242117826	-6.24455764651343	-7.39417580475961	-6.13265560528577	-8.48526416906531	
34429742	-6.08318542934372	-9.14733879074787	-6.24214145916679	-7.2845228280681	-6.244288718059	-7.51194056961533	-6.11921606852646	-8.84252213322203	
34829739	-6.09803157459662	-9.05419945638701	-6.23860666726905	-7.49870134933919	-6.25566474426364	-7.52486305673142	-6.11065930833102	-8.77847050911327	
35229736	-6.08761722256165	-9.11441424675761	-6.22358466447986	-7.53062160402369	-6.27489834970847	-7.64049630295509	-6.14073034822505	-8.99525617810042	
35629733	-6.08184333328287	-9.48972954547106	-6.23978976267528	-7.69481652753964	-6.26474048115879	-7.72402393430416	-6.15275352468576	-8.90836585659351	
36029730	-6.07568197819987	-9.35860137802805	-6.25454154288013	-7.64962450039073	-6.23467079002228	-7.91047728481774	-6.12929966697048	-8.9811787652114	
36429727	-6.07237743154665	-9.55209518857322	-6.23459468689038	-7.79270919428374	-6.26519408220215	-7.94017767069893	-6.12255147216629	-9.09784790173903	
36829724	-6.08671567363256	-9.62989780616459	-6.24094103535688	-8.12456832333784	-6.25934331870759	-7.93458031538897	-6.07990011911877	-9.1789837616691	
37229721	-6.08875041324057	-9.74301641832758	-6.23970532378618	-8.16072871494788	-6.25887615701377	-8.12938632072718	-6.11461401437306	-9.32157748195884	
37629718	-6.08505653321203	-9.90102699068134	-6.24368477964507	-8.22822307972967	-6.26819195693807	-8.20517728487622	-6.08039214052588	-9.32653310099857	
38029715	-6.06749390255494	-9.89124213864494	-6.2357385502069	-8.13664728353817	-6.26940676868769	-8.29430279216822	-6.11372781343927	-9.55999896501572	
38429712	-6.06893238850105	-9.79783058485389	-6.25892546976628	-8.33833214560266	-6.25078020736492	-8.35105901313644	-6.08802419097842	-9.6519180104111	
38829709	-6.07916359450373	-10.121284183306	-6.25050033457209	-8.41827402838429	-6.25715403888475	-8.51070578561644	-6.1100775788581	-9.76541839133421	
39229706	-6.05970226873101	-10.0463858936366	-6.25634905059743	-8.3995569393116	-6.2381577278637	-8.52994098589178	-6.08110330842516	-9.74338714514004	
39629703	-6.06590790777822	-10.1107289410311	-6.25060136985738	-8.36082989367239	-6.29185924910397	-8.4028026008437	-6.12252077805717	-9.86154868075594	
40029700	-6.06856164034723	-10.2709754276412	-6.24908140251511	-8.63230406634652	-6.28419951186798	-8.63415171774761	-6.09742163546341	-10.0136380918984	
40429697	-6.02202061476687	-10.3177301753091	-6.24374658442187	-8.72668495689083	-6.27006757689502	-8.77962536609833	-6.1159737479108	-10.1452134732476	
40829694	-6.05667755313454	-10.2800460212513	-6.24828635439967	-8.90337966397551	-6.26442249436146	-8.80272213968348	-6.08424427649216	-10.0578946192796	
41229691	-6.06204528186274	-10.558986415582	-6.26467456861849	-9.00535772635326	-6.26610367201759	-8.85866650076007	-6.07684007158275	-10.0887438749993	
41629688	-6.02498648239782	-10.5353557679256	-6.24111250356758	-8.94044299529915	-6.27314931424973	-9.12606785819347	-6.114449818959	-10.4120895897891	
42029685	-5.99510601422841	-10.6397608404859	-6.25617189655826	-9.06432422736404	-6.26318161975214	-9.13164388040066	-6.1048315133236	-10.4172889171959	
42429682	-6.03310857431427	-10.6212990829265	-6.24774704903442	-9.19434542582949	-6.26767621393267	-9.19769495591885	-6.08730493954697	-10.4130336090761	
42829679	-6.05453065149281	-10.8241696316639	-6.25319258175674	-9.30644685050834	-6.28875313832118	-9.54806646312093	-6.08446804509966	-10.5859560582001	
43229676	-6.04528883753488	-10.8314749879452	-6.27566872813747	-9.41442892551656	-6.27600870805079	-9.39633988973386	-6.06907539452792	-10.5166906284913	
43629673	-6.05360134778699	-10.9777991824625	-6.26361572962768	-9.23059422796109	-6.2900196173687	-9.48749748063462	-6.09126844600651	-10.6201470463968	
44029670	-6.05252086398745	-11.0310848993969	-6.24623207505876	-9.57385948819584	-6.29297944634194	-9.61242541269973	-6.0650537134449	-10.7472761863393	
44429667	-6.02537418252739	-11.1358258718876	-6.26286675019601	-9.70365370630573	-6.29366461597356	-9.62871851188369	-6.09984191329464	-10.8955247472378	
44829664	-6.03464353848908	-11.352292513388	-6.26809601048537	-9.78101562063405	-6.27323394870296	-9.81433136264258	-6.06564568005172	-11.0300872510566	
45229661	-6.02708868507549	-11.3702713454911	-6.2575417288551	-9.78232353171984	-6.27554960278706	-9.94025076300455	-6.06697920743594	-11.0526508008412	
45629658	-6.0276734851998	-11.504601549598	-6.26395392180327	-9.80457672670102	-6.27157747505018	-10.0442218952727	-6.07955932168266	-11.0751040510366	
46029655	-6.03997700198463	-11.3879376785519	-6.27043069478342	-10.0488926343187	-6.28406121334324	-10.1253183922859	-6.06405361524364	-11.1371248464479	
46429652	-6.03511869788064	-11.5846014698693	-6.24746979672128	-10.1262812045793	-6.29081150257541	-10.2464817736465	-6.0574077633605	-11.2277682161463	
46829649	-6.00479444971533	-11.5242490815761	-6.25401896803479	-10.1490751833114	-6.30137730009917	-10.2935607924985	-6.0617866867992	-11.6220543409792	
47229646	-6.02266363241633	-11.8530796561663	-6.26048724433295	-10.2930397824526	-6.31643002950144	-10.517811244634	-6.05385336147709	-11.6550054280308	
47629643	-6.02893074776415	-11.7842753239502	-6.29495184602069	-10.3502093646576	-6.30165620800393	-10.2387761949044	-6.06310669983027	-11.3978318318375	
48029640	-6.00641686110991	-11.9157768905908	-6.2720969474428	-10.6532964326625	-6.28887219849108	-10.6538937729066	-6.0325125732972	-11.5731092579511	
48429637	-6.00185903049173	-11.8821941278981	-6.24678353659497	-10.527576504896	-6.27413156814476	-10.7088672814378	-6.04955204644079	-11.6355075151398	
48829634	-6.01042697403084	-12.1009000451781	-6.26417600180182	-10.6432474023777	-6.32296464955637	-10.6967206972057	-6.02531309281824	-11.6943608991481	
49229631	-6.00751886422165	-12.1044132282541	-6.28163146302661	-10.7872641450367	-6.27657859924453	-10.8534503027977	-6.06356702346213	-11.8311693445537	
49629628	-6.01761858704498	-11.9076891771899	-6.24800017196845	-10.7995694437555	-6.30123063106132	-10.8412254549476	-6.02290877786485	-11.9265991837186	
50029625	-6.0258908576569	-12.1653092531308	-6.27469097973527	-10.9510269741929	-6.29686098426167	-10.968727340497	-6.04227870690344	-11.8787364570767	
50429622	-6.01407334371943	-12.2101463371019	-6.26848250420411	-10.834004271764	-6.30994220436801	-11.0489279429172	-6.06561164954167	-12.0184332569385	
