!Keysight Technologies N9917A: A.08.18
!Date: Saturday, 27 May 2023 17:06:11
!Timezone: (GMT-07:00) Mountain Time (US & Canada)
!Model: N9917A
!Serial: MY52401314
!GPS Latitude: 
!GPS Longitude: 
!GPS TimeStamp: 0001-01-01 00:00:00Z
!GPS Seconds Since Last Read: 0
!CHECKSUM:0403965511
!Correction: S11(ON U)S21(ON U)S12(ON U)S22(ON U)
!S2P File: Measurements:S11,S21,S12,S22:
# Hz S DB R 50
30000	-8.25021875387967	-67.2647801481451	-42.0414742445509	-81.0465973965614	-41.3893684533791	-99.9101614463857	-8.40195886344113	-62.2844405561504	
429997	-29.980695197054	-101.897016064716	-61.791688946493	-151.567881852489	-63.74063717587	166.665406894115	-29.5414796115569	-93.7314789376249	
829994	-33.8254476614791	-112.304727918879	-64.9964449836	-145.169276124476	-57.7525103444645	-168.424095934177	-34.0077391717283	-100.632922207671	
1229991	-36.3297144489233	-118.770522239208	-62.5675222720056	-82.7695748491307	-57.9143656545008	149.337636400982	-37.0316576110256	-102.154916289109	
1629988	-37.5264243419803	-118.888923227525	-59.5484741530389	-160.695668308261	-67.4853575837748	139.757071220322	-39.1625956173142	-109.831595246485	
2029985	-38.4473408784941	-124.414835943704	-57.470018465976	154.564779955893	-58.6066624673049	-177.881132445497	-39.5028336382759	-112.750395879343	
2429982	-40.6796673927153	-137.521482596579	-53.8614803795504	174.056024594953	-61.3106403365452	85.8135552716132	-43.7457390561622	-113.916521246363	
2829979	-43.1956880674156	-129.316618917303	-62.0467475396932	107.784885093802	-57.386982047599	40.1115058138454	-46.0452786675122	-125.836200714243	
3229976	-41.3867112299219	-143.080835481796	-68.3548710023453	5.50898144642917	-59.3343848548474	-175.994487100247	-47.4444674401631	-108.476651165191	
3629973	-42.1664212211035	-140.592022999858	-56.8847517598876	-179.498012774913	-73.0482855143317	83.6147873823605	-44.2801890076978	-142.860790514318	
4029970	-40.487067763856	-149.265797669903	-57.7418118129112	146.457405767299	-67.3405084602324	157.735154611134	-49.4142463052641	-116.975452234338	
4429967	-42.879494491372	-151.201570776427	-62.7734764082075	114.627344844863	-69.5373136552472	77.3298357023308	-47.6249858265829	-117.6132944372	
4829964	-42.3086163145513	-145.204842865019	-60.5258491508286	-179.344857187349	-77.9804205895479	151.979669349148	-48.5697481338757	-110.235318158673	
5229961	-41.063870941941	-144.170989097824	-69.7961634878279	157.335436619177	-74.0242101024869	31.8744508841202	-48.5584695299726	-148.198486899201	
5629958	-44.3167468566284	-137.334273094734	-62.4833032583642	60.5957650948869	-60.9383865311764	-152.494184852381	-45.4956684725324	-129.887177179697	
6029955	-41.9896034020008	-151.24317785495	-55.981658969831	158.765764160389	-56.7014396653917	157.704499631737	-45.7666190060559	-155.474546581005	
6429952	-42.643869462247	-138.532420277927	-65.0818973931646	-179.227380101557	-56.6955477180905	177.57389759049	-48.3078001493015	-138.178169845864	
6829949	-43.6266940701237	-153.793149482979	-59.0325133484763	62.7925323780801	-56.6516346872981	138.178955375106	-48.3654626452138	-112.809872562824	
7229946	-44.0939709974506	-152.192228991852	-62.9911082835792	172.812006229108	-56.136258584153	120.926878194403	-47.0881324210253	-138.19638367008	
7629943	-42.8027481520176	-146.372863240347	-57.6685767045085	99.5346160871844	-62.1982907372855	-154.346878146394	-51.4209943639287	-124.632175201505	
8029940	-46.7324683559853	-141.383198549175	-57.0864541322786	133.407713009113	-61.9429117109036	92.2278363583481	-46.6740471697333	-129.81215351202	
8429937	-44.5978391654296	-141.213862919635	-53.7138997619892	81.9830738081039	-62.7193875877138	-166.26035545987	-47.0255462070074	-122.017920155444	
8829934	-45.2252620352567	-145.903409624453	-55.4930745737932	130.157508422756	-59.232518149523	-162.963348658106	-47.7491031415332	-137.574590009725	
9229931	-42.2500067564841	-140.501893577659	-53.1978097252039	164.610640584365	-61.6913392446897	170.454730490557	-48.1952676335792	-124.186591319321	
9629928	-44.0813026317571	-141.234646685602	-61.1561822648063	69.9464214051498	-61.1640448340513	-176.490722600046	-48.6868309888878	-121.235104371114	
10029925	-43.4037469415921	-132.38860423909	-62.9340655644238	168.239630745201	-62.2144245542923	105.461844096624	-47.6417420296347	-156.668987586184	
10429922	-43.9965853170017	-128.662630537918	-55.0945776058022	100.56894551282	-65.5516802739749	114.404658371345	-47.3705468268502	-128.29791228755	
10829919	-42.8708036074311	-144.445767759298	-59.519087000473	53.004972420942	-62.8447879195039	90.6279455726251	-47.6197612353064	-119.783841614734	
11229916	-42.4061378823608	-132.897505724766	-56.8447627832596	88.0491170342221	-56.8125325517739	91.1591394288802	-50.9646835781729	-136.015434081864	
11629913	-43.0697961819468	-124.134584363112	-61.3905110625916	16.3834856137525	-60.7257675643294	103.361373963372	-46.749387270192	-122.256030633855	
12029910	-43.9053539280531	-133.90952843425	-63.363843181102	25.0589384349674	-68.8266094117304	87.8589481915822	-45.3052373855933	-115.645040472452	
12429907	-41.3507722935605	-140.340849455768	-60.5516668999882	69.8201197757618	-62.0012169891348	77.9758344282331	-50.6449297136158	-126.328328813139	
12829904	-46.6145225121358	-117.429525657648	-60.6068867459636	78.0035403856924	-58.2346222457801	87.4877546155213	-48.652686123497	-129.958620029469	
13229901	-43.4253685002336	-133.920596559272	-60.2252064560344	-94.6755493788015	-64.1734764533365	73.0085335571672	-46.3263753716531	-140.86466766787	
13629898	-43.0913220185674	-135.713179326414	-57.0651908714839	106.9377923651	-61.1617980254293	145.407202026991	-49.4183708659443	-105.273880327727	
14029895	-45.4307007597425	-135.968830821829	-60.8865001008911	144.011428895106	-59.2025233941229	100.439886824584	-47.7133182384125	-118.501243037363	
14429892	-43.7910513929116	-117.849875704731	-63.1863312098448	81.56918616878	-60.3936548903602	153.668514887085	-52.8656201840999	-120.222784320613	
14829889	-42.1138939198352	-113.984430982914	-69.0096296938655	167.547476600939	-55.6306172034235	156.250371371363	-50.474789704103	-130.716567510946	
15229886	-43.2175032813758	-112.013666811662	-60.0221526553443	121.420999151233	-67.5247128722241	-169.698356936463	-47.7601722976887	-95.2163483867048	
15629883	-44.8676644107416	-128.287829293704	-60.6091603168896	56.3578949887524	-55.4369689373108	81.0404893292942	-45.756509655411	-113.349173464716	
16029880	-43.1866701226848	-115.06253917979	-58.0906555978415	120.54052117647	-59.4755094596442	91.2679265914759	-50.7841358352137	-105.31026476364	
16429877	-44.8523836345363	-101.291692278514	-59.9317810918241	104.072067033019	-53.8689481831232	102.496279100473	-51.1309690510541	-91.1119886699291	
16829874	-42.9198363483986	-104.675674230069	-58.0667438824033	166.448624151335	-56.6349857928473	109.567087951902	-47.0009970762355	-107.551857389357	
17229871	-44.702582119326	-117.524524721017	-58.67153799582	129.574888959992	-60.5355301698097	111.290908516415	-48.2626583015752	-109.67357179097	
17629868	-44.5735772571786	-111.643015615605	-54.9508529098384	69.2151341518673	-59.4094738573466	115.344225808857	-49.9416936044241	-93.213557483148	
18029865	-43.5518573695257	-113.854412200128	-62.285930424978	142.427440834024	-59.4365809232511	160.432990657735	-47.9434086447622	-102.57076181193	
18429862	-43.264261488509	-114.534951700156	-57.8458950517551	111.655550492994	-52.6144316006767	83.8652895218045	-48.6415155791862	-88.1103449550699	
18829859	-43.650102605343	-99.9065592603109	-63.7463767316197	149.546083460108	-58.9779797686293	85.8756274050521	-51.4834480351198	-85.0806919028197	
19229856	-42.177153441243	-101.167990042036	-59.0832939674619	107.106420699452	-59.856073742507	123.003455450368	-48.9898980710636	-71.2467593771716	
19629853	-43.7064209035968	-101.277590386293	-58.5597742865194	108.579553381142	-52.4149927901636	84.9442351121786	-49.1951713450281	-89.687725654816	
20029850	-42.4289943926321	-100.271319072941	-57.6365274564396	109.843768636888	-55.4328372386512	105.035128102078	-49.8352672855646	-102.544020386985	
20429847	-43.8965115716478	-88.6602740391536	-60.2745787768233	97.4070680135053	-61.6040249715194	95.797845257686	-48.0966300429307	-127.390623955485	
20829844	-44.067852034359	-90.2332153472135	-72.8104021739843	124.673998666769	-58.6781182724601	118.388639350495	-47.3374494588476	-100.367998257098	
21229841	-42.2421151531282	-92.0229221454782	-55.0651641448619	61.3073299398599	-65.1705695745399	103.482252716061	-48.0048370687064	-98.6658583820423	
21629838	-43.689833756063	-99.2068768564899	-59.7219333952959	106.435478636177	-65.8552615109772	-168.623107741551	-49.6646885269789	-79.6658988334954	
22029835	-42.7817087332889	-83.1635708740126	-57.4508273547151	132.296100996688	-62.6310390514433	116.732844366008	-46.8649469241655	-103.109019489659	
22429832	-42.9533959509341	-104.464373018196	-56.9458857230855	164.111132670055	-56.5442676529217	87.820042454942	-49.75302980082	-93.3023528026296	
22829829	-43.860932224662	-75.551875404914	-55.9913201718419	125.101739213078	-59.0410538251216	51.3844529407037	-47.2538556369434	-88.4515395422619	
23229826	-43.1849876418324	-84.2033143538614	-58.2393221180236	130.440271455247	-57.1851067135721	93.1720483023366	-49.6615265747409	-88.667202790337	
23629823	-43.5052828638974	-79.664030960151	-57.2708505636305	119.682008697773	-56.9638064702822	84.2715911727147	-47.6183565356976	-82.6350920634096	
24029820	-44.7523500340699	-93.5475044175586	-55.5601168468916	134.7242885904	-58.4378805286783	117.422941439929	-47.1744206590855	-56.8637859183243	
24429817	-43.4683867595901	-78.8963496525725	-55.2090328663128	105.796170982696	-61.5229079663084	145.645345355161	-48.4863339741441	-47.5849319261358	
24829814	-41.6610956401991	-84.442815968001	-54.3965728197852	104.545399217193	-54.8200688895207	118.825131200612	-50.3544028170109	-59.4027242237977	
25229811	-42.9297992665535	-84.7890938500721	-58.5888463508366	55.4834712373533	-53.5348862875376	72.7666767560298	-48.5747922854334	-70.6758004686699	
25629808	-41.8014936356533	-76.4757419043525	-56.6118963843992	109.471891951896	-56.9239206437239	80.6096230372547	-49.981435635294	-69.3267607885482	
26029805	-40.8103481595597	-74.7024627363707	-58.4952030880886	125.162247856744	-58.3198402418932	139.14111265288	-49.7648421523563	-62.2158879106065	
26429802	-42.783395245712	-84.102393091448	-55.1328433447038	72.6058245377753	-56.9961300542209	98.4894557963082	-47.3428315099073	-81.5720566636195	
26829799	-40.8669824744385	-69.8862468691901	-58.6978197863479	81.8104888897767	-59.285191361525	171.447610029521	-52.7846226613875	-61.4876250882216	
27229796	-42.2115409716845	-71.9850840966862	-60.340848367331	111.137823794424	-55.5179888111458	113.657999887758	-49.2872289362651	-46.870956764912	
27629793	-42.861575749541	-77.3536778796829	-55.6861176509189	105.747151313324	-54.5290366049595	136.285256241978	-47.3953131009963	-80.3512094294791	
28029790	-43.1689151403251	-73.7570735488709	-55.0736832964882	103.613792146574	-54.0022423489051	84.0602566561438	-47.1121841127755	-74.9428657608708	
28429787	-41.8271567071492	-68.1208589867441	-67.4390240732185	145.225524980332	-57.051954072733	101.64863969154	-44.9726703950673	-47.9962136455039	
28829784	-40.8750463081106	-76.7419739759979	-59.2812558773454	94.4860235950277	-54.4233285237425	93.9277350471452	-47.7994457109127	-46.7413917751223	
29229781	-40.5028637351209	-65.4741704860666	-51.2476892949493	116.876245387287	-56.1846649627363	81.0375248569226	-48.44499926534	-60.5371135767827	
29629778	-42.0156858809744	-58.1295669006572	-55.0774271948672	93.7429779874317	-57.610803965721	62.5099701072634	-43.3306777590736	-43.9878260058919	
30029775	-42.7269848088381	-65.4554217971942	-53.7063103173986	94.4312807767295	-57.8731159889805	175.570134759609	-43.2583717143397	-42.4751772453141	
30429772	-40.975069680596	-64.2295845533132	-57.039532517707	77.3750472189541	-53.6101954321079	104.370700615108	-45.3071175064275	-65.4357914073972	
30829769	-39.8987228468656	-67.6881673691869	-52.3163891183804	108.629567708615	-52.232947416038	73.7563256472953	-43.4651682892732	-35.6897128340429	
31229766	-41.0752978191412	-58.7145679482738	-57.939014870785	100.743176038183	-55.6433087879137	93.3539204555408	-47.5426357497198	-66.2172935941729	
31629763	-40.8174542776153	-62.8435109637143	-52.9902687761388	112.36140155891	-54.3580760205169	98.7614349771359	-45.1712532071055	-35.1703794109904	
32029760	-40.4462626998401	-50.0421488588536	-50.3686527354796	84.8203903082845	-55.2884468442152	92.9371252304616	-44.5773156652905	-45.3589183377017	
32429757	-40.2425307331354	-55.7495181564044	-62.9251436205227	40.5601871199048	-55.4842476015229	97.3794300860406	-44.3212537556667	-47.0030530016492	
32829754	-40.0078086264135	-64.5184434035993	-54.195869214252	106.164843924578	-54.3108872870301	96.3046948223462	-44.862672313926	-44.2744684891636	
33229751	-41.3229139957492	-57.4450205726914	-51.7936044005989	93.6125641796134	-59.5981292653284	82.3598998029865	-43.172299090772	-35.7560790319453	
33629748	-40.7103582369241	-49.9246952051424	-57.7615341389179	76.282667731243	-54.1475022413698	73.8780303804112	-43.8209091693064	-39.3712307762158	
34029745	-39.2569946116891	-49.5074601593406	-54.7934947285621	114.074752840874	-56.7265523021146	73.0793706533664	-45.4082415229212	-33.978148670195	
34429742	-40.4291942498634	-52.9752824637314	-58.7264560924593	89.9768107166023	-56.4972320860341	103.023906205953	-48.1151530154061	-31.4539488418767	
34829739	-40.1260707857388	-46.6586517710629	-53.9996756198015	89.0775257483666	-56.0232726715964	97.1858424368547	-45.0813664093154	-38.2790421790893	
35229736	-38.906828974646	-49.5932867895377	-56.6993031242431	121.060191651104	-55.22644358479	115.703639188413	-43.7995499270807	-36.2469822205685	
35629733	-39.5736291588159	-47.7685623474295	-54.5633574552045	72.4631202236514	-56.9175906931768	98.613922849919	-46.1219145342315	-29.8381141835604	
36029730	-41.1233207361976	-44.0402077415904	-54.7816171334217	116.609280110908	-50.1944481211238	77.0927745582248	-46.479501269977	-24.3186570593891	
36429727	-39.3741486236098	-51.1692781889992	-52.8192485883222	111.920254848499	-54.1649511525665	92.3945096153562	-43.7868611727303	-19.6019691970539	
36829724	-40.1524379455706	-47.3694695484726	-54.3743502154028	80.3120086717051	-52.2787079938784	89.5577940791478	-41.8899252176904	-26.6725403504756	
37229721	-41.3178711036949	-34.1469840009597	-51.3237222577304	100.765363140622	-57.6436545021574	105.221828265761	-44.6430118790037	-27.0711503851032	
37629718	-40.001496298066	-41.2423653589326	-52.8018304979989	89.984764213744	-57.8661565720493	84.9201615656478	-43.1349452567828	-11.7276692870629	
38029715	-39.7973604163393	-36.3481082392115	-51.9797311991771	112.909309960835	-49.8826946035166	76.7718254480282	-43.179631517207	-28.5347062082214	
38429712	-39.389213419256	-29.9081181768583	-52.4157838308927	99.141473509511	-54.8071405239162	111.700497610982	-44.0780246925078	-10.8942023226825	
38829709	-39.7671419512258	-40.2832575431981	-50.5468840793424	111.4184987667	-53.9115551929064	70.6160443909596	-43.0022990275343	-25.2108855954814	
39229706	-39.3633556113546	-36.8583593386667	-50.8144557757759	84.8382891784181	-54.0269632919268	76.442074431357	-41.7897882864025	-23.9130372717565	
39629703	-37.6630427762547	-36.6050342559668	-56.9694008143102	81.7795802948398	-53.9973099696062	95.6311698751446	-42.8065675312898	-23.8429021815107	
40029700	-39.5838791489841	-33.2747832642819	-52.0545483695512	89.4601218894599	-55.3013196173247	66.8952798052782	-43.2306833744581	-30.033608392551	
40429697	-37.9328065867508	-32.4647689521829	-51.3949600397069	82.6487284929381	-51.9534841261719	105.0777941807	-42.6985621767196	-16.7556948468678	
40829694	-41.4639800012154	-32.0538033901346	-51.9031310754658	118.713201993677	-54.5778795321504	97.234825342026	-41.5231356905738	-15.8749369621078	
41229691	-38.4110442467105	-24.576964820418	-54.0122626743071	79.4226591954961	-54.744350121566	89.5241845305164	-41.5097488863414	-10.6513040963255	
41629688	-38.5949272008743	-29.5445116251923	-50.1329185320003	91.6792563070552	-55.4676154303167	101.505806489221	-43.0064493143637	-21.3276264253637	
42029685	-37.9287937089117	-32.7032834203661	-51.5958040503092	89.2647644856664	-51.5332055770227	89.1413037522722	-41.0404952748946	-13.2502717903764	
42429682	-38.7889178371383	-25.8398590982781	-50.6432486611542	94.5989754718142	-58.8515564826591	150.357744790961	-41.134811175523	-20.3343752358555	
42829679	-38.3675659674661	-25.5051515880513	-49.1429442885221	71.1299611596688	-51.7685386177387	104.892418701965	-40.2574739469624	-13.2666808384314	
43229676	-38.7147950860973	-25.5113031466522	-50.0306124003333	102.216989312252	-52.3431757454602	110.03212598606	-39.7155901345023	-9.58888592494174	
43629673	-39.275543084296	-22.1397103121222	-54.7542157550781	105.843373294544	-57.3644835612999	75.1395597964745	-41.2073967137063	-21.0535037147072	
44029670	-38.4113048955763	-19.5308947197787	-52.4248353122769	85.9303482453832	-51.6238221628491	84.7049296723442	-39.5353643202476	-10.4941726457845	
44429667	-38.2754250855152	-21.424444958618	-51.2311847673541	110.115894851593	-54.6837772274113	101.058399208546	-41.5474811959618	-7.69546670404053	
44829664	-38.7106484286639	-25.2745417489713	-54.032389115007	101.924807190116	-51.3797384678187	112.630905063742	-41.5682396922911	-9.16683468339508	
45229661	-37.5825853200703	-26.1192437470769	-51.7175136451129	81.7541381983396	-51.4668410391719	80.0533031310515	-40.2554509050554	-2.54259470256129	
45629658	-39.0332612981886	-16.3857148436794	-51.6915252193947	100.449982105877	-53.5610277723473	88.871252696193	-40.763365827366	-0.968191034983132	
46029655	-37.6239813684379	-12.692452110838	-52.2730474284481	84.9367066589086	-51.6094812064498	90.6187884493948	-41.9839512283391	-3.43026801271771	
46429652	-37.9852390459374	-18.6242617564493	-53.9465881262609	94.9502999108976	-55.2799545077523	93.7945704595853	-40.6537633407413	-9.57838355528231	
46829649	-38.1389220052122	-10.6043844001846	-50.702375550417	95.4099457037203	-52.5367246133544	99.2272311482862	-40.9993715318206	-5.84111229347447	
47229646	-37.3482772412248	-23.6367398859517	-51.1594115636198	94.9369932664213	-51.8894325804712	92.389932567637	-38.9672577203365	-2.47104843036267	
47629643	-37.2457063440827	-17.9744312436286	-50.9468712456743	89.1766456618921	-51.0169795299146	91.8821672813261	-40.159976080928	-5.65611536321565	
48029640	-37.9170419508216	-14.069722659637	-51.8959326634394	100.118049683952	-53.4949666471115	88.3603939816096	-39.3518932982493	-3.4633594864763	
48429637	-36.9711448191824	-15.1727807688097	-50.5192117295759	92.4497041532302	-49.4569198430117	105.126145839464	-40.6328325297496	-4.3029785229137	
48829634	-37.448489495319	-17.1186221885783	-50.3185077796162	100.142543410941	-51.1156083486549	95.0055262409368	-39.39315795687	4.05165627717473	
49229631	-37.6235368679133	-7.87788178920963	-49.8561922535893	98.7353631620148	-51.6410255454128	105.106390816429	-40.3351742801275	2.93508863560799	
49629628	-36.8496682488687	-9.16272706406052	-51.239270841142	90.8246202034943	-51.4556475230706	97.4615535617962	-39.1075393413029	0.585196023268769	
50029625	-37.609421357363	-14.2667180157995	-53.1369301911869	85.5031299348834	-51.4495907515029	114.605833847429	-38.4259020516061	5.99517342753993	
50429622	-36.760794471634	-5.63592414410025	-49.7573975820967	94.0932531572372	-53.2005437603196	107.230277526596	-38.8283176695784	6.24895306981926	
50829619	-36.8980920661946	-6.56589499749678	-50.6542091277578	88.6130859786993	-53.232295690589	87.3886862135821	-39.468614309269	-2.53429105670336	
51229616	-36.7326633598464	-8.80621328588673	-49.2446429339266	83.2963658757634	-50.9983508208285	98.9683641793758	-39.3987592099172	-0.447768955954355	
