!Keysight Technologies N9917A: A.08.18
!Date: Saturday, 27 May 2023 16:42:02
!Timezone: (GMT-07:00) Mountain Time (US & Canada)
!Model: N9917A
!Serial: MY52401314
!GPS Latitude: 
!GPS Longitude: 
!GPS TimeStamp: 0001-01-01 00:00:00Z
!GPS Seconds Since Last Read: 0
!CHECKSUM:1144455261
!Correction: S11(ON U)S21(ON U)S12(ON U)S22(ON U)
!S2P File: Measurements:S11,S21,S12,S22:
# Hz S DB R 50
30000	-4.21070371956255	-19.346827199372	-13.6462122476909	-130.736083814376	-47.0283949710504	132.332441645509	-8.16143198269823	-63.5885702167654	
429997	-6.22242475749212	-2.28027551266349	-11.9728420643635	-175.883594898434	-66.7447826143104	-127.022814274937	-29.151200781665	-93.3635725723694	
829994	-6.23171748606463	-1.73101748027912	-11.9108543572584	-178.35438610092	-60.5755850642812	-68.6116212842029	-33.7529955672585	-93.9708898487971	
1229991	-6.25564672896606	-1.55476849163531	-11.8944581315255	-179.308709928075	-72.5482328019045	-117.655754280482	-36.7183356255638	-98.8259092163652	
1629988	-6.25053461786102	-1.47444505195196	-11.9011250946467	-179.644505397044	-69.834389100533	-116.936615282319	-39.3473756257196	-106.511889331545	
2029985	-6.26941189203087	-1.50251989442004	-11.8984742943082	179.519115137847	-72.5643825931761	-52.4150400093661	-39.7218354508538	-104.95558484138	
2429982	-6.25927122114284	-1.0656150994568	-11.8757571697572	179.577422848096	-58.953141496682	109.179969767596	-44.4841664224942	-101.63381708787	
2829979	-6.24030715761878	-1.16829670178293	-11.9217826758133	179.404872578968	-62.1907980571811	46.8319418651696	-44.3529426749961	-107.09373990178	
3229976	-6.25888248571317	-1.15566772617317	-11.884799911473	179.266692495888	-73.9392918103457	-83.490435570015	-46.0924017702003	-101.503763656242	
3629973	-6.23487471112503	-1.2131904216976	-11.8958140655644	178.9644667141	-56.4040389712257	54.1330099278831	-46.3426734625378	-125.415264070885	
4029970	-6.2756130370583	-1.34589465264123	-11.8877794058775	178.712357512181	-63.2617115797234	104.366356563277	-46.775862516806	-90.2039247482906	
4429967	-6.23973691477575	-1.46559815956638	-11.8699371545811	178.455026370867	-59.5738623666145	120.484547985396	-46.8134099551989	-101.759141187452	
4829964	-6.23491031523312	-1.42534878727982	-11.8615466585514	178.198526011529	-65.61660549328	154.750994949937	-45.8106972422159	-104.090843779804	
5229961	-6.27047493971163	-1.76992935400268	-11.8885923894359	177.877546060503	-65.9734962167936	-150.078836671139	-51.8023922593747	-127.09948753951	
5629958	-6.23641406021244	-1.79188769012784	-11.9449296767213	177.836850383291	-68.201363087641	167.378557168109	-45.9409772720525	-109.682901778153	
6029955	-6.24726399321618	-1.76608218852887	-11.8890003834749	177.519098130726	-62.2103199001542	1.63964086697014	-48.1756298601558	-130.774706915747	
6429952	-6.25229197384045	-2.02113209120512	-11.8755358881279	177.142856061569	-64.5539965274668	68.3148705651383	-50.6967177466966	-120.02684976024	
6829949	-6.23848805335414	-1.81991094077473	-11.8741693267731	177.06838044443	-62.6758933923963	97.4540769659058	-47.751038789237	-92.8525588449605	
7229946	-6.26240998236243	-2.04637929240069	-11.8552163428892	176.622596546533	-58.0244349388478	-0.0176093377891551	-48.0474427181972	-88.7246826179924	
7629943	-6.26121360484217	-2.21467976145512	-11.8860741250367	176.572757444168	-75.4918140969542	95.8414684818717	-55.3526497470395	-114.424902901428	
8029940	-6.2175465567889	-2.29815979523815	-11.9041973606196	176.30489851903	-64.913383834375	74.3475843602847	-51.7276133241856	-98.8937742105667	
8429937	-6.22821730877224	-2.51676708885356	-11.9011565972901	175.944111680668	-64.7551390855378	26.3155402306568	-47.7221869527506	-99.7586424204531	
8829934	-6.26368864245998	-2.38423437655687	-11.8793642926633	175.928478891263	-66.7609636266505	-25.2346350120771	-48.2858309881076	-124.887542761089	
9229931	-6.2332749645923	-2.82065784955984	-11.849001321905	175.688883100511	-67.0971501756895	-83.3389032181627	-50.194039440553	-126.967991394188	
9629928	-6.24012237408454	-2.86045203859713	-11.8489520002152	175.498579744864	-61.1165833950779	-111.398276892714	-49.2465777310317	-98.284152790711	
10029925	-6.24626933055342	-2.81000237612515	-11.8619867115532	175.443305676132	-61.5911538074237	-23.2658619338891	-46.1273019788406	-131.360649566871	
10429922	-6.22110104823552	-3.00790334024295	-11.8971725280714	175.185063849215	-65.5223782401052	110.568206694207	-50.1010453047635	-119.534585100035	
10829919	-6.2428553844713	-3.12144413207381	-11.8700632365499	174.961706672301	-62.639345736003	-99.8729501442278	-49.4752474594903	-83.3646219411481	
11229916	-6.22538753252449	-3.38729045661022	-11.8640570992578	174.565571855183	-64.8084959298198	-16.9798087955768	-56.7993898004453	-99.502230992958	
11629913	-6.23705863194174	-3.30626383295005	-11.8990548003774	174.366428369309	-61.7519554099389	75.101154696963	-52.7420201643911	-106.976619923599	
12029910	-6.23074850507847	-3.40410053218815	-11.8914226305182	174.381871064753	-77.2463306589033	14.3606432126667	-47.1712954094496	-104.199580604007	
12429907	-6.25025669717733	-3.67768113754835	-11.866900826195	173.998705750761	-64.207200753764	-168.466483918876	-50.382810664997	-84.0395395119268	
12829904	-6.21321176309869	-3.46230035920449	-11.8438962487398	173.640685468473	-77.857947877547	-105.531146125818	-56.0721777616017	-110.670999583297	
13229901	-6.23061596111723	-3.73554243068794	-11.8832305910947	173.749748865978	-61.7620170180777	107.026708107799	-45.5653406088113	-124.379944557682	
13629898	-6.23097946139473	-3.87541859596883	-11.827216119291	173.289808270897	-62.8235751416586	166.876979829809	-48.1634963946919	-84.0159655909405	
14029895	-6.23929133681822	-3.99717128776731	-11.8470913442237	173.048980224283	-71.9633552877814	-131.485386601613	-49.8597129150723	-116.78328218549	
14429892	-6.22268577824201	-4.1732352745898	-11.8422214629312	173.139808488309	-72.296902110792	100.124607695426	-49.867649495263	-86.1968883673119	
14829889	-6.22565679357723	-4.30658197404281	-11.834722106112	172.933200563902	-58.4925158781028	58.8085238626874	-51.9239004227607	-92.1247478959723	
15229886	-6.19901822279741	-4.45435742700188	-11.8418122180324	172.752594378856	-60.2105354339794	7.43098734637876	-48.3991639024167	-84.925600592932	
15629883	-6.21811045569793	-4.45374051601992	-11.8441451228268	172.484369576451	-65.4652821809659	70.7506644826165	-53.1731447207397	-96.3041328854954	
16029880	-6.19644402066167	-4.56374996537998	-11.8435531996337	172.206291783912	-57.3850060449194	59.6948434216186	-51.8397470165323	-80.7486826830312	
16429877	-6.22183298942879	-4.6650567398929	-11.8615853977079	172.178674235584	-60.6294548798488	24.5454126760944	-45.8809310967059	-78.3755682001533	
16829874	-6.2038739632861	-4.73869427855789	-11.8595213556392	171.889907268332	-56.202256034547	1.98186976073655	-48.7189345665706	-85.7612123996991	
17229871	-6.21128901644569	-4.84634123192616	-11.8605448189961	171.658054938603	-65.4189402109037	-64.8034717552034	-46.9554330070032	-91.5154331232974	
17629868	-6.21229021459295	-5.01552257737776	-11.8516240988351	171.304112301876	-64.6820723869279	122.728754799559	-51.7370894965281	-75.4611767292176	
18029865	-6.21560491925256	-5.16273215080478	-11.870184715176	171.304380304281	-67.7006161921227	-145.220460291907	-48.893339196821	-68.1173196826275	
18429862	-6.2342289860176	-5.12013569187782	-11.8630229937301	170.938399046659	-68.0998685419677	60.9523359569392	-52.593086161681	-102.279446304632	
18829859	-6.21152716154177	-5.24798307833211	-11.8340281480611	170.608300319144	-61.0829840641347	-18.1860436937001	-49.9998834855166	-70.9369532291267	
19229856	-6.19799583036406	-5.50194006424313	-11.8521211961121	170.537933915717	-59.8994150320126	120.100197085406	-49.6113324508805	-61.1678439238795	
19629853	-6.19152649856844	-5.51603430421532	-11.8257522086187	170.183697596244	-60.9405289048405	-8.26347659713118	-51.6257750999784	-91.960521767605	
20029850	-6.21461074455548	-5.5284881372571	-11.8178758507847	170.056330585687	-61.8725812730212	-123.108844683579	-47.1674435790116	-56.6802590773757	
20429847	-6.19764914868842	-5.55086522316948	-11.884926472609	169.911895025149	-61.3258889592388	130.683690235184	-49.3315638927471	-123.962788949822	
20829844	-6.18805032524611	-5.73274824064192	-11.8287402187773	169.867460829425	-63.5669733603874	-98.8330879740282	-49.5473159135003	-61.9254328667307	
21229841	-6.21440884250362	-5.94124357362356	-11.8535372898924	169.599929168372	-57.6351182742327	-21.7286652318288	-48.5198527558266	-81.2023465365722	
21629838	-6.17923270056562	-6.02133993385366	-11.8615548467598	169.04657724459	-55.3601996228687	-90.2305702220502	-47.563955259807	-60.172688677433	
22029835	-6.18681878874989	-6.06899283898448	-11.8512381154344	169.060036644023	-57.8473243925044	-55.9059943565577	-46.6102529299399	-88.6556775891609	
22429832	-6.18034281946046	-6.19199287998268	-11.812726313137	169.05252183886	-63.9087652376202	97.5000295895509	-53.3740548996755	-61.3376759446686	
22829829	-6.16370510362136	-6.18402273618198	-11.8476531516711	168.713051558759	-78.0833382828577	-121.422789579889	-48.4532302497543	-55.5009367146702	
23229826	-6.18383846538692	-6.51491855085455	-11.8112771456232	168.372511483703	-60.9317454453929	13.3547362096938	-46.3743412897307	-54.6669660922774	
23629823	-6.17133721284804	-6.44845647815837	-11.8158832878159	168.298804546809	-63.2503915634174	-26.6134109147851	-47.8176858895857	-75.2425066432612	
24029820	-6.17402156759813	-6.67311525598617	-11.8143396675843	168.230434782558	-68.9385574054666	119.11284650575	-49.0738896927241	-37.0698092721067	
24429817	-6.19024448090728	-6.63928161576312	-11.8541265101379	168.072991275818	-63.0106619396627	154.000616909948	-49.0083977428285	-30.1487683797558	
24829814	-6.17049237448652	-6.8681570336022	-11.8384391626525	167.669733584329	-63.756558394506	48.6739353629904	-47.9117460691554	-48.4132722368544	
25229811	-6.16662916930669	-7.02560689747299	-11.8287794618066	167.349347549878	-58.3608696620021	-67.406166495915	-47.3680350809538	-60.9367094607371	
25629808	-6.15641945221391	-7.11486530146877	-11.8419076810734	167.241423170195	-60.3920301787057	-131.331584402543	-47.0940052256848	-38.299253075763	
26029805	-6.13565963943356	-7.25988665561091	-11.8669529775057	166.885406557996	-61.5170514423551	-8.14924468649104	-46.1724746643553	-58.9996151201933	
26429802	-6.15533403351186	-7.31677866778017	-11.8225235941175	166.674301940796	-54.7245731040954	-29.2728707761487	-47.9113060789302	-60.246038315189	
26829799	-6.14885120371465	-7.39365466563929	-11.823776323468	166.677332402175	-59.9647053132961	110.572631107183	-47.6019504183271	-45.8586472944335	
27229796	-6.13915967471219	-7.47486526881543	-11.825901680361	166.570194629786	-62.5776288404838	6.47727976112723	-45.5442003187783	-47.7434580044868	
27629793	-6.14762862401517	-7.51102707224038	-11.7973934693532	166.092666097337	-59.8862904918639	125.973093185267	-45.4474857223007	-46.864043354774	
28029790	-6.14050050700136	-7.75952463881296	-11.8072810309021	165.874696184011	-60.6234569889098	-5.20748442612908	-47.1085284401175	-56.0122553148622	
28429787	-6.15024900042655	-7.61785654711591	-11.8205403039809	165.771805541182	-70.3063586945456	123.304192250993	-44.1341324219383	-33.6248809294298	
28829784	-6.14154021214556	-7.99240075955434	-11.8290858451753	165.512669452843	-59.1132741407639	25.4965244092561	-46.7542691320612	-43.3517511184881	
29229781	-6.13530426810363	-8.06919383525555	-11.8311782474016	165.286215979162	-59.4811293972707	-11.5433568374616	-47.3686462306608	-44.28650985038	
29629778	-6.11812117905089	-7.91061304586535	-11.8462535808164	165.221547311228	-61.3565066558906	-42.8592626984589	-43.6185270373681	-40.0541886384561	
30029775	-6.14738888850055	-8.17752866588094	-11.8195882579521	164.909882474407	-58.5670006139767	47.8367372065872	-43.8557028128363	-32.0363906779461	
30429772	-6.12858906206271	-8.25970169772467	-11.8095047401121	164.790643086791	-61.3323420604883	-11.8763902448	-45.7738145466842	-41.6755022417689	
30829769	-6.1378459503729	-8.41354308601567	-11.8139844605751	164.320980386268	-59.2248268573393	-53.5551596178316	-44.3294261756599	-25.9921576188167	
31229766	-6.11705634123225	-8.38961116719909	-11.8119913595927	164.397015314545	-70.1833424416209	35.8705528013294	-45.5807092015904	-41.1262364532351	
31629763	-6.14543872711751	-8.64686379176958	-11.8248291420783	164.173830486543	-67.3786143097959	-76.3557867849193	-44.0941397448562	-31.3419706068992	
32029760	-6.10143951626896	-8.55909089874141	-11.7715390847144	163.932703572733	-60.3082270876412	54.9075702165986	-43.2285891099694	-40.7250491818208	
32429757	-6.11918554053054	-8.85408859781241	-11.8149655774745	163.721772738559	-60.0673009305219	103.66587292607	-44.4817441447273	-33.6462197115231	
32829754	-6.1085056143777	-8.92163187496361	-11.7711215613711	163.542056658225	-68.8606055382127	112.73938269943	-42.3740797242204	-45.1311937155173	
33229751	-6.1423390280644	-8.8180292811885	-11.7910909135161	163.237202210669	-59.0786629324706	-46.3452379203318	-42.4299227919678	-28.5471693422173	
33629748	-6.10428049268828	-8.89473226053314	-11.8092963180975	162.874180492852	-60.6119482029622	133.217744169017	-43.7430411232426	-26.8239613540322	
34029745	-6.08857192039386	-9.09397966142675	-11.8020324499207	162.978495532285	-65.4627720337279	170.507947600619	-45.8529156284959	-33.643749524907	
34429742	-6.08922839071902	-8.96112189661294	-11.8087951535012	162.557288651324	-66.5347295530804	124.517438558162	-43.6334853059776	-22.922644543423	
34829739	-6.11354264849971	-9.14945111983906	-11.8188731691152	162.430787828233	-62.6049975796699	-74.357179564421	-44.5470370679789	-21.2901458974488	
35229736	-6.10785508347872	-9.32532523019937	-11.8199371215831	162.087639828944	-65.239318840707	60.7387406690671	-41.8121877142721	-29.154203380558	
35629733	-6.09116882826351	-9.3559390456449	-11.7967296251168	162.182470302905	-68.336125061706	-7.15300244415969	-46.6359308789988	-16.7913758179327	
36029730	-6.08663239518457	-9.45408339125906	-11.820970174683	161.475236416439	-53.9173245091336	1.4018355847061	-44.6584246089827	-27.2548634909183	
36429727	-6.09631248452909	-9.55679224676041	-11.764896614424	161.457423242951	-68.2886618122893	45.3149487241816	-43.2599031777625	-14.7658820548699	
36829724	-6.09481391605817	-9.72605654224	-11.772678985125	161.450295341053	-66.6711452165146	-169.157582469591	-42.0798807836412	-11.0174314782178	
37229721	-6.11659023575532	-9.73733738408171	-11.7859571399827	160.952826685744	-65.8570218464397	-62.9353773457283	-42.1344911073718	-17.145596463531	
37629718	-6.08133525028019	-9.86644257779197	-11.783636800518	161.087816301946	-89.7963502412263	152.921775619039	-41.9186880123791	-13.3777325524527	
38029715	-6.07681594413347	-10.0687339251961	-11.7836770226492	160.461896958333	-64.1134503384002	-60.6475456579149	-41.4237379456815	-20.1453216424166	
38429712	-6.07499565201346	-9.90706086774391	-11.7799998848537	160.592528346823	-70.1986807238514	-86.5104482151762	-41.6253222146736	-11.946225652977	
38829709	-6.09331931406831	-10.0471852866251	-11.8267719923461	160.118661528522	-70.2521651175998	-12.4295578875262	-43.6274641418168	-14.1959352707521	
39229706	-6.08636156200919	-10.1631671011759	-11.7814997181514	159.86265800822	-58.4178886766322	53.9441342798331	-41.3475759697725	-14.6265853710134	
39629703	-6.08707277917119	-10.1437499784304	-11.7699887059276	159.921860897369	-63.6389437763204	175.466583587541	-41.9436220298744	-19.2625583871831	
40029700	-6.07884344835232	-10.3743156231499	-11.7802640793028	159.654084350188	-63.116773916431	108.021366390842	-42.7461959060865	-10.7390297800935	
40429697	-6.0433466086197	-10.4511554772923	-11.7858014071796	159.444196516084	-62.7579537165243	-122.772735598758	-42.3561069484921	-17.0430302189255	
40829694	-6.09029400786834	-10.5447596683483	-11.788959809772	159.054199134245	-63.5209643626098	27.7015907983908	-40.9921012084746	-6.84382588864941	
41229691	-6.0841564099033	-10.5656754803793	-11.7627066263498	159.154876969887	-71.4491734611699	-168.757475766059	-41.7379411391984	-14.525263011702	
41629688	-6.07098482940635	-10.5331153192367	-11.7913641003305	158.692127629129	-66.2878999547796	84.8549068396679	-42.8348127930367	-21.68524382165	
42029685	-6.0295615105367	-10.8486035093568	-11.7512691536263	158.585338173096	-64.9947292629214	-42.4310663117565	-41.1313174450386	-24.7014444792566	
42429682	-6.07105612507063	-10.8829868052994	-11.7909968333664	158.378557516156	-60.5529689409726	136.868556588764	-40.5570916003192	-12.559192651436	
42829679	-6.05855989830203	-10.9891251131049	-11.7808745970354	158.218518488719	-67.6743358837436	109.895746912419	-40.4371071541522	-6.53496766798689	
43229676	-6.04768845655755	-10.9443188946332	-11.7547047530247	157.816802859398	-67.3732259996958	161.316453931783	-39.4504266681112	-6.43136496268877	
43629673	-6.06778224655809	-11.0511570820246	-11.7821128993656	157.700576059616	-68.3889262793546	99.9515839471067	-40.9067802460749	-14.9234989901601	
44029670	-6.08875871096473	-11.0954428403912	-11.7572251096493	157.187772596016	-62.4384141460944	-25.7039777519378	-40.4664626611285	-1.9106463128558	
44429667	-6.06901753962379	-11.2541901115198	-11.7097933595598	156.991749256023	-64.0354485986171	157.470799661953	-40.6303861812439	-3.90273535689727	
44829664	-6.05794971796274	-11.4625767402664	-11.8087191039255	156.689775064033	-60.7635623754935	-48.1995666197176	-40.517351599799	-2.2926949993532	
45229661	-6.07403776443632	-11.4943731427851	-11.7646340369056	156.940433359623	-75.1778226991823	21.237181869931	-39.9923808485912	-3.63018004663055	
45629658	-6.06179611039251	-11.6191848857491	-11.7647862938571	156.537232770682	-66.4589588213605	88.7822690244004	-40.1895580669977	-4.7066076105842	
46029655	-6.0326178388838	-11.5113018035318	-11.7624535813583	156.169300710777	-61.1309363758412	-41.5876375418688	-40.7262787539422	-9.9054345341677	
46429652	-6.0655515294156	-11.6118331417997	-11.7885995051489	155.838810600623	-62.6793910851136	86.9440897619884	-41.1329331113314	-8.03154510875842	
46829649	-6.03311532915304	-11.6329721897561	-11.7728256194006	155.92329536202	-65.07725483352	51.8526756323894	-40.1109761589899	-6.63521826747978	
47229646	-6.0315479876914	-11.8400750176353	-11.7381574789983	155.681583223665	-60.7878913155433	91.8915192129664	-38.1333974147145	-1.68060252137414	
47629643	-6.06104335772624	-11.9955868475466	-11.7973045629213	155.446814092197	-64.2405659624916	122.632505459268	-39.9724139676346	-7.57684494298013	
48029640	-6.03842644825224	-11.8697283975559	-11.7616364624026	155.085523819503	-67.2245976195878	126.879320478189	-39.0714181081177	1.40633811377998	
48429637	-6.03845056962876	-11.9643003812249	-11.7382756354908	155.227081935832	-76.3578650646261	67.2465451015852	-39.2752302189084	-0.215702888808519	
48829634	-6.03674215307245	-12.2752321167496	-11.7915706913422	154.761539594024	-64.8403549618329	96.3794067387436	-38.9128826680269	8.14096765262672	
49229631	-6.02758039131476	-12.0427511855298	-11.7613144901323	154.473294843278	-63.9958522139607	95.6220318665597	-39.9803927587354	7.19316656238521	
49629628	-6.07593069313444	-12.1688671305412	-11.7211786328023	154.59063676612	-57.886746919025	-98.1214382327869	-39.2392060406939	2.25201533569998	
50029625	-6.05829320154467	-12.3612630508806	-11.7356278754684	154.260314197985	-59.6617887991581	66.8440085070426	-38.9922415400581	3.91670573128575	
50429622	-6.02963620954777	-12.1182070341111	-11.7462409870338	154.04896049074	-59.8443065483262	-171.695416641804	-39.5264451522449	4.10712849262548	
50829619	-6.01824986412032	-12.3608350010299	-11.744485318069	153.770928491658	-70.8914512803737	104.79327525662	-38.744102269977	4.95884628753915	
