!Keysight Technologies N9917A: A.08.18
!Date: Saturday, 27 May 2023 16:53:12
!Timezone: (GMT-07:00) Mountain Time (US & Canada)
!Model: N9917A
!Serial: MY52401314
!GPS Latitude: 
!GPS Longitude: 
!GPS TimeStamp: 0001-01-01 00:00:00Z
!GPS Seconds Since Last Read: 0
!CHECKSUM:1344617248
!Correction: S11(ON U)S21(ON U)S12(ON U)S22(ON U)
!S2P File: Measurements:S11,S21,S12,S22:
# Hz S DB R 50
30000	-4.29766656302602	-19.1704920894893	-13.7014823075834	-130.897331026459	-49.1270138838729	-124.151677555993	-8.15569023639159	-62.5470093531656	
429997	-6.24165136310237	-2.13045158448846	-12.0283433512773	-176.148896671711	-66.9881729752034	167.836455064383	-29.7752383697473	-94.4498917701937	
829994	-6.24703991057344	-1.69824158584699	-11.9383703992105	-178.236183913787	-63.7845477081802	8.89298986041927	-34.2700544684697	-101.660635258425	
1229991	-6.24525785317391	-1.51705493695051	-11.9106890617596	-179.327336731335	-74.9789513077285	-9.79939869173242	-36.7799256228075	-98.3384567551147	
1629988	-6.26744226994246	-1.58059228334935	-11.9224015472174	-179.817913302442	-73.6836117315039	16.8646506220137	-38.6341769992812	-107.992774755679	
2029985	-6.2726866370084	-1.54939111877045	-11.9185289689149	179.790876839242	-66.1125460959988	71.191831208375	-40.3248330328335	-112.679947241846	
2429982	-6.25528394762797	-0.985505652737794	-11.8957378146343	179.805028984117	-63.130404436026	-94.1393156679709	-43.2782628434303	-124.980552830633	
2829979	-6.23401815263533	-1.1617613971109	-11.9051057102671	179.350237595395	-62.551418988622	78.5275114359831	-43.7977427154909	-118.154501947671	
3229976	-6.25950584900646	-1.20299050454446	-11.93573753261	178.823527018787	-67.1164261797673	93.1788613888834	-49.1134882216336	-96.0977189768248	
3629973	-6.27099169158784	-1.12034523287783	-11.9079610925197	179.008560604436	-65.1352888608021	56.6157936522431	-45.6929292761372	-149.44802437156	
4029970	-6.26506241751785	-1.42093915833435	-11.9129325996658	178.796357421438	-67.344113745311	129.609566374523	-50.1000516952729	-123.224056426465	
4429967	-6.23924305748991	-1.35301649121985	-11.8945135374474	178.372529389427	-68.5924477140733	10.8875751807811	-46.8634374966344	-116.956439945307	
4829964	-6.23840027581659	-1.2848252239312	-11.9051613437538	178.118529736235	-57.9304154482895	63.584593594469	-46.0314797423852	-122.373220176378	
5229961	-6.26764072070291	-1.66044697956926	-11.8813422189592	177.95582153341	-64.0897593613463	149.764119637424	-48.099925047076	-138.644774835898	
5629958	-6.23782139108538	-1.98900439443075	-11.920328082978	177.365063521421	-60.3130299914126	-72.9262506724749	-45.2272096196903	-126.724874134318	
6029955	-6.2525043522248	-1.68008848592741	-11.856306403107	177.481641088135	-69.2634007160086	-67.1612241843102	-47.4130039244324	-138.16695969145	
6429952	-6.25853199276921	-1.96015995111988	-11.9227436963784	177.116041339483	-62.0425737130922	-165.518345640373	-48.7660035226596	-106.697488070142	
6829949	-6.26344697618616	-2.07233740898493	-11.915823855131	176.879553096126	-61.7104344936622	-69.2713636027655	-47.5331922264385	-105.388520529636	
7229946	-6.27587909826935	-1.97142537056553	-11.8888663449863	176.976518205948	-61.835173626408	167.085509477152	-45.3126924734301	-125.350681038037	
7629943	-6.27035490340277	-2.34231649582719	-11.9032283789773	176.757404428592	-73.2219446022965	-40.6834049510146	-52.0244925604142	-141.332097856226	
8029940	-6.23224482269463	-2.35591065153698	-11.8843914557019	176.481731003912	-61.7696782827894	-125.745552592055	-46.0208581118512	-125.930719565149	
8429937	-6.25000624246186	-2.42700119484723	-11.8903058494201	176.391831510717	-59.7378884025367	-142.385397137465	-51.0572943325943	-134.464805115306	
8829934	-6.25982921906407	-2.43478855384054	-11.8989891850271	175.641525179804	-70.6559846545954	146.822467112713	-48.182695767749	-137.963364884346	
9229931	-6.24428258220274	-2.67460318165013	-11.9230749899046	175.678575540803	-65.7895674020517	71.7777010542946	-49.1874233266639	-141.788493215453	
9629928	-6.230621062847	-2.87249177174619	-11.906765852558	175.362546743944	-61.082397940797	0.833233736116833	-48.3819283751606	-108.433836034165	
10029925	-6.23214025866895	-2.79356649577313	-11.8804293187501	175.323748358312	-61.5860937562989	-172.715692693396	-46.7100841772291	-137.953328511259	
10429922	-6.22964158492461	-2.98674999219901	-11.9028524388623	175.117600567666	-62.393138594476	-137.532352549096	-48.8336957773348	-128.970169243866	
10829919	-6.25731734796218	-3.02405031099961	-11.8837516241637	174.705889010004	-60.1363906104593	121.436744843006	-48.1382640205695	-117.01590478912	
11229916	-6.24095749642816	-3.23700278139675	-11.8777450726729	174.478669938484	-71.80931756192	28.6972501297856	-51.9060461448549	-139.857742879928	
11629913	-6.23303835394476	-3.24207798663743	-11.8623717007874	174.332737094899	-63.0515291444775	-99.6355631531514	-46.6846181630497	-127.837039192936	
12029910	-6.2474532707594	-3.35735285652429	-11.8471746549081	174.188260108726	-61.8805981653567	119.51037704115	-46.8952983610412	-124.494896868226	
12429907	-6.23873903900177	-3.46862141672008	-11.8764329137501	174.077170595749	-59.0220400977746	31.2872069860066	-49.2333246008747	-94.8908838505571	
12829904	-6.23574090002384	-3.55227095221843	-11.8967490344976	173.575292767446	-66.8553917959647	17.8522610223394	-48.7171122392577	-117.722556858483	
13229901	-6.23082980952283	-3.91605653836806	-11.8857988263133	173.358406086101	-60.5176308798978	6.10264172748587	-44.6790427434321	-131.98756564607	
13629898	-6.24722884901907	-3.85257340953676	-11.8813715109949	173.098940769888	-71.1111253555672	-32.2760121119663	-47.3817713528956	-114.112668577895	
14029895	-6.22006089926113	-4.20294291960748	-11.8907567528331	173.143496111298	-63.5536823621721	-21.0306802666889	-48.8491319279949	-121.942111751545	
14429892	-6.21637728557007	-4.11288235959213	-11.8648003810101	172.744240093155	-63.5746979871947	22.2513647355061	-50.6789804018466	-92.5071249266762	
14829889	-6.21902402698665	-4.18854098269823	-11.8819161162239	172.840712843744	-68.3707138245867	137.809667861737	-49.5726071013589	-118.552528001898	
15229886	-6.19985523789897	-4.40511370793112	-11.8711414531135	172.433382170821	-62.5996203361141	69.2132583295331	-47.3130838452791	-128.118889787402	
15629883	-6.23348925215712	-4.35043356723097	-11.8891769098556	172.432645100024	-75.3316565447537	138.621961609705	-49.5569182207151	-125.48900421195	
16029880	-6.22782873978537	-4.58554578110422	-11.8853516531444	171.899826092074	-64.6557233470901	-149.886631308945	-51.9927634552364	-85.3441567063781	
16429877	-6.23067955753777	-4.60745244084884	-11.8602100351544	171.64637376506	-73.0732210854761	125.452718564928	-48.6130107393572	-87.3897460252835	
16829874	-6.21127099300472	-4.73822232571167	-11.8809712559718	171.602870253403	-60.931695021409	59.7392506433548	-44.4447710514568	-111.187465440987	
17229871	-6.20041543056508	-4.77419980261098	-11.8775048042056	171.371220218787	-58.5038999942235	-161.788848133462	-47.8843561498399	-98.492682614647	
17629868	-6.20887822262428	-4.97686465078892	-11.8648047706599	171.261947727082	-72.5083575447378	-98.1664862027611	-53.8885666417829	-112.763321541511	
18029865	-6.20297858725207	-5.11602698487385	-11.8723382563698	170.901910014122	-63.1488631528882	-102.302290844599	-48.4069406201378	-105.314297392869	
18429862	-6.2102635210087	-5.00667992656644	-11.8492486550384	170.657788062753	-62.7032530051169	-175.875806916301	-51.3354723209474	-104.654030008593	
18829859	-6.1979617594906	-5.25068867877027	-11.8290921397447	170.359880510589	-57.8612279457449	-40.36163043855	-48.9829542443136	-115.47476503138	
19229856	-6.1905278272089	-5.55049586107907	-11.8433324491818	170.271841284695	-71.007723071866	-45.4506120585335	-48.6112199525505	-89.6821828077401	
19629853	-6.18683906433149	-5.46186668504226	-11.8575420117208	170.140244873053	-62.1764200011992	175.122746094307	-48.5099886992786	-124.746631461261	
20029850	-6.20576301092905	-5.66733972141237	-11.8692359301303	169.932447272064	-70.2863000455393	-179.274725236492	-48.6650518824932	-94.3100915569732	
20429847	-6.18298193560317	-5.63916338094261	-11.8661818827665	169.833568304143	-59.2325604731373	119.77981424015	-46.8046515055708	-127.408278392216	
20829844	-6.18352608933599	-5.74373415270968	-11.8591303201857	169.31884935317	-67.8971720678675	-146.036321826325	-47.6356834232002	-89.6226731408048	
21229841	-6.18418413312473	-5.98474481144989	-11.8386713278388	169.088300458004	-71.9165143843422	77.5260802496338	-48.459458494138	-97.2574023134303	
21629838	-6.18712467115879	-6.02652993291638	-11.8374945929737	169.084437055188	-59.9876039840729	80.4841619841081	-48.1924505015284	-76.9189986458175	
22029835	-6.17990759921646	-5.9858093004981	-11.8592499995095	168.934287010809	-62.7615336016435	112.797851008792	-47.6629589920206	-96.9044806295512	
22429832	-6.18080559163616	-6.37974688094162	-11.8210201253733	168.713559434283	-73.8724991190328	-150.927350230784	-52.3416079405899	-59.9401063784546	
22829829	-6.16759010385641	-6.33830362760231	-11.8328664932527	168.380348991128	-65.7882716053622	-167.559588917998	-46.9506319086384	-97.9027322396934	
23229826	-6.15162180741052	-6.42650527473422	-11.8329260448902	168.120362376437	-67.5711222960407	131.536136664506	-52.0163879587884	-80.4322362318124	
23629823	-6.14863927176886	-6.53467041381375	-11.8410777043771	167.892308864483	-62.0952287096958	-29.7310085799442	-46.5426992845176	-81.7266206809964	
24029820	-6.18330713769558	-6.69896497032743	-11.8509397703759	167.80683758502	-75.0252222499068	-97.4708320046507	-48.1443530559934	-72.1945592317071	
24429817	-6.17760349841681	-6.71413404986368	-11.85947392862	167.65743235013	-58.3113422461059	-122.962388502144	-52.52531408106	-62.1778595961289	
24829814	-6.17053677204228	-6.79059421866154	-11.8455895666335	167.311564181347	-61.7119826787931	-67.27376902092	-52.0822066981906	-60.7294335817083	
25229811	-6.17860345271148	-6.93566952254264	-11.8036708019285	167.358757999958	-65.2197185286902	-176.142079092293	-48.1599102072158	-64.4434466585286	
25629808	-6.15215433509094	-7.18234798070166	-11.833774755611	166.952561152817	-76.7916612357957	-141.81033018763	-48.6935654510107	-78.5318113591836	
26029805	-6.14781128445786	-7.12778049471682	-11.807955588348	166.606227701569	-61.0825890674103	28.8959611893526	-49.4808495876536	-60.7737044075041	
26429802	-6.18485602418331	-7.33133472808807	-11.8676501270805	166.206775168158	-63.2739224176699	23.4866239944223	-50.470026104931	-76.8167588086048	
26829799	-6.12771286880831	-7.39803594519868	-11.7962894879099	166.320181429844	-62.0324120376891	92.8949588254307	-48.5540339508014	-55.819948125545	
27229796	-6.15618187136513	-7.19829357921325	-11.8387105793213	166.112454997625	-54.9382753992637	167.791121611591	-45.5495678794545	-45.0022971939856	
27629793	-6.14193630111559	-7.51982156197355	-11.7913964257223	165.855844288316	-70.1944266278499	-143.466877784557	-47.6089461600185	-81.0700439667862	
28029790	-6.1601316153126	-7.64408600664975	-11.7932622434617	165.357924146202	-64.0948244141405	70.222771160708	-51.2289641896886	-58.5063700265453	
28429787	-6.14645022357751	-7.66422795003515	-11.7777016238969	165.207154837205	-67.9461871072551	103.813320542681	-46.9692192938157	-55.240313005062	
28829784	-6.11879359826615	-7.85383159898666	-11.7932149546247	165.088260234613	-59.6231619204979	28.1453979821043	-50.5811579683449	-44.3907616255428	
29229781	-6.14734816216862	-7.83596650534287	-11.8213185447188	165.01270860688	-63.5968254828548	7.39109865279821	-47.2092371488554	-53.3748244381001	
29629778	-6.12204705163141	-7.96805380072005	-11.8145628784326	164.938179468062	-56.944413109941	-132.958857661313	-43.7893153477567	-58.4256609815186	
30029775	-6.15069432564338	-8.01321528154051	-11.7951304657343	164.704959040934	-61.5880693873362	-62.9180848949898	-44.6412146619699	-31.0139963014258	
30429772	-6.13186212169731	-8.14004620902568	-11.8026085603838	164.346310109171	-63.9756427603882	-80.8631124830081	-48.7962968773831	-65.0716299407721	
30829769	-6.13639234049746	-8.35220558154927	-11.8101108522955	164.264542429739	-62.5638192856033	-141.05423594287	-46.0451862415657	-40.34535428443	
31229766	-6.10718966645544	-8.43028726810789	-11.8768976576434	164.179039260527	-63.7645992792336	-25.9516216588052	-46.9735171096764	-46.0642729997492	
31629763	-6.13881651958077	-8.4740024891846	-11.8096302906004	164.032964985695	-57.4626467149609	-128.664987837259	-44.52846067784	-34.6773287801734	
32029760	-6.10617620432018	-8.49696343547888	-11.8089185274251	163.758473085141	-59.070397708502	-26.5586814503165	-43.5151206260494	-31.9256561182857	
32429757	-6.09798466349318	-8.71535985237823	-11.8049390907631	163.039422786115	-73.1102354236611	-5.44392234771043	-44.7171830168121	-57.8497709297479	
32829754	-6.10347920989244	-8.89621816895827	-11.7795218999089	163.123000279452	-64.8524675985969	-6.35492776214463	-44.0719982498641	-49.9151045065932	
33229751	-6.10613635215612	-8.89906687133944	-11.8036734497871	162.789197617482	-75.0137038028554	48.7563732377674	-43.0560129895568	-30.788593381232	
33629748	-6.12762903651712	-8.87204302182709	-11.8299660745118	162.354333764743	-66.8409100916141	-55.8714207543658	-44.7810724812255	-23.6574645980161	
34029745	-6.09486749305058	-8.99158000429236	-11.7922214730304	162.44094032811	-62.9750106097057	74.9741264465366	-43.6112230874543	-44.9704586002034	
34429742	-6.0722046122592	-9.1260184632491	-11.8058307227637	161.950086464969	-56.0192837139003	-18.2135953216719	-44.5300490056434	-28.2527920853239	
34829739	-6.09414972146784	-9.20223689599669	-11.7705123289082	161.965825576892	-64.8764877840644	-152.487997839446	-45.2668705217647	-40.0986017573796	
35229736	-6.10306284756723	-9.17143224867427	-11.7934859271019	161.492633148751	-60.0347600366666	-140.986284634421	-42.9993439678181	-49.5271545028866	
35629733	-6.07406193218293	-9.47598954805943	-11.8527432008872	161.474202435228	-59.0414712232631	-34.2426765679274	-47.0733687378102	-31.4739491820412	
36029730	-6.10270242823893	-9.29296675874047	-11.8108261812244	161.220092048229	-63.5242825172103	174.141245749454	-47.5058034155339	-33.2460957756069	
36429727	-6.05164873872817	-9.58597000090905	-11.745736826302	161.087124061089	-57.6053564453721	71.7452177682371	-44.9258271220158	-29.8707832995243	
36829724	-6.08155231291376	-9.684814721242	-11.7892946892145	160.779898140928	-62.6641321968832	151.288587437911	-43.1057324356009	-19.1056264910342	
37229721	-6.10283864803861	-9.60571604697429	-11.7840743230314	160.748380900114	-71.9831003592165	-74.4738742171641	-43.9215909875816	-17.4709866768383	
37629718	-6.11199691029995	-9.8408770599441	-11.8111425539839	160.562598607899	-70.5093622753843	-53.3293400949861	-43.215329547114	-10.8559235583173	
38029715	-6.07971682658543	-9.7188845089913	-11.7878282898135	160.191924869653	-62.1604282255844	-117.884281235999	-43.1018829055403	-29.6865072389092	
38429712	-6.07672127291377	-9.80439851304788	-11.7990647819235	160.096730058929	-74.3692969145866	86.2049835356837	-42.7288938915557	-19.8375432283557	
38829709	-6.07713241138663	-9.92457846728772	-11.7807268457797	159.684045043072	-61.989510387045	-1.70666005039673	-44.9926220589107	-19.2601645563276	
39229706	-6.0729269473406	-10.1823747170316	-11.7989783365056	159.518233138154	-65.5983812686716	-111.325212722451	-42.3091303598913	-22.9009559363147	
39629703	-6.06686573086605	-10.119618252169	-11.7980019954665	159.453276102092	-69.9118479628524	164.427041344596	-44.0099660528348	-13.7826808406965	
40029700	-6.08093991893091	-10.2818838661636	-11.7513573702647	159.043558137917	-62.7412180711615	-40.5513091729161	-44.2137715387796	-20.7364805785276	
40429697	-6.02979574196648	-10.5022829988651	-11.7314248286897	158.705109488221	-73.3651044990945	-149.345964308986	-42.8467703955614	-13.3821369065145	
40829694	-6.08073770765031	-10.3576158156807	-11.7717972772206	158.489102858505	-65.6423586488084	40.2168345064061	-41.4164309761348	-13.133009329141	
41229691	-6.09446116719016	-10.4002944119847	-11.7687382952853	158.279509886184	-54.8792120388528	-174.662281113627	-41.6817570014465	-11.4844338362893	
41629688	-6.06150018594597	-10.6102964174703	-11.745538811629	158.263820443719	-58.5454126131222	25.2869091824068	-44.7486257701466	-28.879661794453	
42029685	-6.03831520261146	-10.667668869368	-11.7768647035501	157.861446579872	-66.0834105551252	73.1189906715626	-41.8563928954207	-18.7362597796204	
42429682	-6.02670739980315	-10.7799904676326	-11.7506773481269	157.905086245377	-69.3841430602926	89.7063064803933	-42.3734820617406	-7.64447444156879	
42829679	-6.06313024442286	-10.9074893009825	-11.7598068728523	157.611318353182	-68.4945618710427	72.1761570017575	-41.5951168631084	-13.3874440642159	
43229676	-6.04158005623929	-10.8918551814692	-11.7962535905602	157.224817545984	-58.7703576983204	142.678525639669	-41.5765086869797	-11.7673236634374	
43629673	-6.07188169786879	-11.0870656851634	-11.7583137656539	157.055203833443	-56.4928404753712	-21.2271497681596	-42.6296156816913	-15.9025334320206	
44029670	-6.06102795131821	-10.9131656988968	-11.7729587274021	156.920807043979	-59.7699019423603	2.02936903591457	-40.7621918793905	-7.04867104163666	
44429667	-6.0493414339152	-11.2506612635358	-11.7676740217482	156.504042496405	-72.6185121581923	67.7304570500329	-41.8247975457926	-5.11265031588428	
44829664	-6.03470080145977	-11.4691562265866	-11.7570283230847	156.370671062437	-60.8165383195789	139.274182958937	-40.3293834359508	-8.18570349537477	
45229661	-6.02712570449558	-11.3967394515875	-11.8135125280272	156.303688267623	-57.7834382921553	-143.137879327314	-40.0090616575803	3.30363199508008	
45629658	-6.06150355231624	-11.5069996465639	-11.7776120466705	155.796926182553	-56.9886934956669	-14.1664970535574	-41.9064429902367	2.93234850792435	
46029655	-6.04301766466396	-11.3715075350469	-11.7782520117816	155.488595564646	-69.4841633675233	-136.987699359744	-41.3293627911707	-1.96788608073214	
46429652	-6.05878370859656	-11.337003469323	-11.7459545476368	155.264539616164	-59.911823447147	-115.181975975789	-40.3865376734854	-15.1926837923666	
46829649	-6.05569853407006	-11.4365061439969	-11.7575340596325	155.22739947388	-65.2202388161336	-45.1876464024269	-40.1380979332041	-10.6015569075888	
47229646	-6.03990413397989	-11.7842280070986	-11.7317344078151	154.968742221193	-67.1935337861785	109.343006581466	-39.8772932286469	5.38978959120596	
47629643	-6.03080024945262	-11.8808087713326	-11.7476325134684	154.967746434736	-63.1852307637346	-31.505620384725	-39.9667907849802	-3.38531095106148	
48029640	-6.04951999350039	-11.9513112070185	-11.7595238586033	154.462282627294	-64.4556385488324	28.0990094118527	-39.2621260160739	3.60921198053284	
48429637	-6.0320729034033	-12.0495995510818	-11.7725696595668	154.484586831251	-67.5948374202567	38.110627136693	-41.6074441930948	-6.71079497898991	
48829634	-6.015464488006	-12.0983836283913	-11.7452131336394	154.038563761275	-68.588897888058	115.405825687044	-39.634938639006	12.3312583859633	
49229631	-6.03346269983327	-11.9530701114358	-11.7617615880293	153.748002225781	-63.9732452833811	-105.323858782892	-40.4142418289954	13.1339045133378	
49629628	-6.03557663889191	-12.1075539724793	-11.7929856401667	153.768102221862	-61.1948391459676	-4.66420413645076	-39.046919826997	-0.781167418891243	
50029625	-6.04473854135227	-12.1660181661563	-11.7461279753512	153.729804106747	-67.9763546916002	75.0967448228837	-39.2837309521513	5.74755155563252	
50429622	-6.03971048573924	-12.0862976980579	-11.7245824615555	153.36730016454	-61.161753098259	99.9953981408548	-39.4330786921553	12.2127084770541	
50829619	-6.01461046210063	-12.3844036398773	-11.751711758867	153.031189462127	-66.0662807968688	59.9045441368101	-39.058948179635	0.625020953574584	
