!Keysight Technologies N9917A: A.08.18
!Date: Saturday, 27 May 2023 16:46:57
!Timezone: (GMT-07:00) Mountain Time (US & Canada)
!Model: N9917A
!Serial: MY52401314
!GPS Latitude: 
!GPS Longitude: 
!GPS TimeStamp: 0001-01-01 00:00:00Z
!GPS Seconds Since Last Read: 0
!CHECKSUM:0625803421
!Correction: S11(ON U)S21(ON U)S12(ON U)S22(ON U)
!S2P File: Measurements:S11,S21,S12,S22:
# Hz S DB R 50
30000	-4.26655577479666	-18.8662507550224	-14.1340018828301	50.1375518393205	-44.8681257407736	96.6508448720289	-7.83483025862133	-62.5134275031961	
429997	-6.22250927640374	-2.27491103699947	-11.9855419104292	4.48500995307723	-75.506523180063	146.166130222179	-29.2073452367155	-92.0053417428929	
829994	-6.2328672371766	-1.70625546887006	-11.9702935337305	2.48178438840007	-66.8306467177929	-143.805156584394	-33.7409790270512	-95.3205304622219	
1229991	-6.2545495043507	-1.47717233273072	-11.966822837025	1.59447099651804	-77.4332060232399	-123.699662394354	-36.8173526168863	-100.630491116354	
1629988	-6.2659726484889	-1.47027344907362	-11.9433758073902	1.4875394197872	-76.7541933604624	-145.090213949445	-39.2351327402455	-98.3064038413646	
2029985	-6.27728133208872	-1.46279125741912	-11.9752506429633	1.12545846419733	-71.9245407744511	70.261876839923	-39.879588313622	-106.295068690604	
2429982	-6.26054644801015	-1.10373962190718	-11.9534335517749	1.36022275430713	-74.0300589530709	110.780762363537	-43.5603553531308	-104.047144852174	
2829979	-6.22253072661514	-1.20306057974761	-11.9469213534214	1.34131575765563	-78.9484106165849	125.666931936691	-44.1634704159447	-120.854594537792	
3229976	-6.24836599345165	-1.32819305395552	-11.9147116952714	1.61841284795389	-66.2623075476641	-168.14980251652	-47.7087236673526	-100.97459679284	
3629973	-6.2526022797258	-1.14823106180977	-11.9412002584687	1.40857218579453	-63.705969750976	82.0327448232619	-47.7310042947666	-137.064056543697	
4029970	-6.27413577154982	-1.40534111191662	-11.9524722090265	1.34641449045736	-58.9750933706609	135.611645372241	-46.9189904988567	-106.004269531852	
4429967	-6.24898573881561	-1.46065050726124	-11.9122638602949	1.53646157378111	-65.7851779175613	-92.1095166882767	-49.1060999836652	-101.478904026139	
4829964	-6.23003907477767	-1.24715596555601	-11.9593602038869	1.44451383766377	-62.1980492028394	-78.6203757817809	-46.1102981726773	-94.5809618781326	
5229961	-6.25710103881287	-1.72236967569647	-11.9474896432267	1.37185930825214	-63.2692295718432	-134.78610748662	-53.1942491059819	-127.890259364588	
5629958	-6.23825666098651	-1.77378740079542	-11.935830814867	1.63189445308508	-58.1279182953521	82.138034934187	-47.344068576614	-130.881839117769	
6029955	-6.26979028747058	-1.72986809850918	-11.9365740850393	1.82045511863488	-56.807518024297	-66.511310289178	-49.0322929587409	-109.030223271625	
6429952	-6.263393101534	-1.86601965171859	-11.8990137262605	1.82581028234901	-61.8164906953555	64.8570179637373	-48.4607662425346	-121.2432970681	
6829949	-6.27475316389636	-1.93886871060882	-11.9008330789217	1.96677615407544	-67.8103689332242	-163.967459846572	-48.4580613705194	-94.2668461124447	
7229946	-6.22981440917509	-1.93848138398748	-11.8973690296478	1.61930309685213	-67.1581102289036	-1.50234402305491	-50.9626896059384	-127.200160007195	
7629943	-6.25769723256105	-2.34200305548232	-11.902932275958	1.82555218386912	-61.49592101641	28.7223961580449	-51.8437494740095	-118.414771506078	
8029940	-6.23722624983982	-2.28021779927075	-11.9164390681628	1.83409562090028	-78.777066552286	-143.133812361426	-50.9744948591973	-117.564887824371	
8429937	-6.24837634331389	-2.39912930961355	-11.9257048352265	1.96983510023488	-64.9181383852501	-18.1076295742311	-51.9759582534471	-126.394686813193	
8829934	-6.23804658317686	-2.34995176572323	-11.9223032847756	1.9055853941667	-70.843168265332	155.452365683276	-49.420963013097	-124.199539061786	
9229931	-6.2621323228509	-2.66175384737038	-11.938843717005	2.00835447806276	-67.1514454960522	14.3231477384173	-47.8196963294479	-96.320811078615	
9629928	-6.23487188860356	-2.77626616934151	-11.9243703301941	2.36903123118164	-64.6624645991976	-39.745576242582	-48.7553382196672	-96.7453014555939	
10029925	-6.24531297028941	-2.71036834621323	-11.8979705536486	2.46526543391928	-64.6303093916403	60.2865276084053	-46.7450980341679	-129.742515491172	
10429922	-6.21487705991736	-3.06845181920049	-11.9380284795232	2.22654344042267	-62.4470787248765	120.491751528609	-51.575472766358	-136.964100346976	
10829919	-6.24569542430482	-2.99083543029767	-11.9152635227343	2.40795299845764	-66.1746417463912	-14.1584426033242	-49.3569308867795	-106.445188699233	
11229916	-6.25797254085155	-3.34098442034105	-11.8695526633626	2.49734260073139	-77.5636946978649	139.748999352525	-50.4858557069112	-124.237181382867	
11629913	-6.25400241125943	-3.3253306995587	-11.9281550953225	2.55760598444198	-66.8734160018026	170.188966609651	-47.7804259055453	-113.042926929459	
12029910	-6.24888293445034	-3.40819969683337	-11.8949937083425	2.70990633554593	-73.5629322027102	-29.7506280802305	-47.4734735608453	-118.107663281999	
12429907	-6.23892478886968	-3.64212472870759	-11.8957333212092	2.59731520392562	-66.7324983271455	120.647251159563	-53.1647221585245	-71.9162268194432	
12829904	-6.22409573402376	-3.63814087807552	-11.9053007399294	2.7484114883403	-67.1359108482121	-123.408051586036	-50.3983206890458	-95.4869227483166	
13229901	-6.23291113175387	-3.74800749961686	-11.9070713680488	2.94157950292685	-61.8174240045267	135.440708354272	-48.8461585283869	-126.107282026275	
13629898	-6.24031496448425	-3.83353630419178	-11.8929886130971	3.03238367468292	-64.4192440759315	-113.884778842032	-49.5286873485228	-94.0451103368945	
14029895	-6.24201019491958	-4.05257841462923	-11.8992435521017	2.95592948742161	-63.6207130150771	-128.508903681018	-48.0890809264379	-115.079938385772	
14429892	-6.21966896005155	-4.19917167270005	-11.9077309254057	3.04709294116649	-60.5872678382601	57.6959029871313	-49.9396277586281	-93.1294362795679	
14829889	-6.23067443743529	-4.30440448836181	-11.9043253344737	3.19031718668028	-61.5098775782352	-164.201267832779	-50.7213027889261	-86.7654990603494	
15229886	-6.20257621977216	-4.46437508651514	-11.8781457409176	3.21076570510026	-55.2821226463535	-4.97723650181022	-51.9275595328243	-103.877838390305	
15629883	-6.21975295106245	-4.38228579518347	-11.8691640800878	3.12260423270923	-62.6216520259248	118.655723447237	-53.7478929584437	-79.1389328613606	
16029880	-6.21235781363797	-4.55776513849978	-11.8740779258138	3.22958293042294	-67.4382131104348	72.3774181136252	-49.8987709734073	-103.516015703573	
16429877	-6.19286449076449	-4.66408457072133	-11.9024833621671	3.25971764213597	-72.1108669635576	-164.706369599252	-49.1283676748253	-67.5570118956832	
16829874	-6.21452485783648	-4.75894813065229	-11.8857290848918	3.55874187981457	-70.5659390388659	9.0793439619979	-47.9344439950291	-113.79536451735	
17229871	-6.21372806480052	-4.90420811989341	-11.8616870882949	3.60171602843885	-68.7014281225817	99.099825623638	-48.4621256588091	-86.9550989087699	
17629868	-6.21547785830607	-4.88654063808193	-11.8229004987478	3.81518907708261	-63.753854521218	-9.06123248583729	-52.624464180049	-97.2310138987718	
18029865	-6.20862591560734	-4.99226952761694	-11.857499382616	3.60106241183107	-66.1246405326182	13.7915782736172	-49.6018249043605	-88.939950205138	
18429862	-6.21373681358402	-4.9921423532288	-11.8655793542061	3.67802279084238	-63.1239008572222	-21.3951318350284	-51.5496433269406	-83.4764268867306	
18829859	-6.19495604593513	-5.33006639357856	-11.8156885499147	3.7803021698045	-74.950391762158	-48.5986023338552	-48.7669054437243	-52.1487067692907	
19229856	-6.19696105329005	-5.47350596755492	-11.804834538617	3.8812114925295	-58.444090502095	103.502540806342	-48.4438230231461	-62.3079610347024	
19629853	-6.19022634565947	-5.43865784752249	-11.8239376016417	3.66717985419077	-67.4318336730431	32.527072421001	-49.3749967117606	-96.5348144705308	
20029850	-6.20102388430782	-5.52199466870578	-11.8389056126787	4.05059264054546	-63.8454715857502	88.9665019230935	-47.4121275340099	-56.1540992780204	
20429847	-6.18527419230597	-5.66724281767403	-11.8252773371289	4.07247301535694	-67.456704261677	-147.469604874514	-48.5981176733253	-90.5357062915356	
20829844	-6.19982981747556	-5.73421101547461	-11.8480079755493	4.29678001238859	-61.7356662093007	-78.280362650967	-49.0103722192325	-71.9490679680405	
21229841	-6.19278784671097	-5.85482949334534	-11.7917366174967	4.23694604687616	-82.3581033377196	37.2390751227867	-51.610852019345	-58.3972617357744	
21629838	-6.19536574008653	-6.0180412451	-11.8331877169364	4.36369336567408	-67.582938411356	-80.6584011135715	-48.8835242893011	-55.9860777256641	
22029835	-6.17155700202097	-6.10610791542397	-11.8383154325817	4.28089144453263	-61.3718702164531	-25.565773821261	-46.1417031300768	-81.802781240921	
22429832	-6.20388017034064	-6.21337882830505	-11.7864640804158	4.38157791256425	-59.8129854196725	24.8596596566873	-48.1234243560112	-78.0470462854828	
22829829	-6.18396026534042	-6.10819081017681	-11.8303357209749	4.59342821407746	-64.7964432544681	141.624693609368	-51.2171786736369	-87.6006171867371	
23229826	-6.16900395536776	-6.47525282515445	-11.7801204119299	4.74907739331244	-65.1824064163075	-148.456720682925	-48.5822871666701	-65.3352432188303	
23629823	-6.15652076308999	-6.46462256322172	-11.7659533445928	4.56936812898077	-69.3948277315974	70.4527344632705	-46.8511549457418	-86.3539897659991	
24029820	-6.18310485415733	-6.67021059656002	-11.8127931681573	4.8541977560962	-61.1435363172202	62.1040621209214	-45.4115331897353	-58.4030102675336	
24429817	-6.17134453881071	-6.67456615137898	-11.7910323818841	4.86173739801872	-67.9462997335354	11.7353616175146	-48.0377675432391	-30.2242950685684	
24829814	-6.15867910773797	-6.80713919774832	-11.8119511818808	5.02982792671361	-59.4417721228141	-15.7686896142168	-51.9677802538667	-43.130085708148	
25229811	-6.17140643007604	-6.82648918924069	-11.7787344237659	4.97753244847261	-64.9998272298198	12.606610008575	-46.5982365660008	-60.8459716460845	
25629808	-6.12715381643598	-7.16416882115787	-11.8002269987284	5.21154935693555	-63.2699745511626	97.705043633065	-47.0736943612737	-59.486370582136	
26029805	-6.1248732391975	-7.18303849694451	-11.7821380634005	5.00596730509981	-65.3144206406717	-174.340103302937	-48.8165123135952	-50.8486407869001	
26429802	-6.16984168968627	-7.39853697665326	-11.7650151014751	5.16810744799589	-63.0033714812036	175.324949950045	-47.7842527633557	-58.3316547792687	
26829799	-6.13982241469538	-7.33892595665057	-11.7199879388754	5.34199071281976	-66.9880683421772	156.693074526994	-45.1755026786924	-37.7876509441535	
27229796	-6.16557168636791	-7.50403194357666	-11.7442734246258	5.3392885916905	-63.25449918017	77.4823277274085	-43.7967927114522	-42.1475107879105	
27629793	-6.14655410985284	-7.50755587018728	-11.7362760731138	5.44135055622604	-60.6374818995385	54.3905230935326	-47.9987982749344	-56.5591365480244	
28029790	-6.13448011368341	-7.6770200411605	-11.7316525630705	5.62794057322491	-56.6613706009634	-63.551294229056	-46.2060141477072	-56.1344495470503	
28429787	-6.14795054597218	-7.57941358945792	-11.7230729233784	5.54422377151502	-73.0953654924873	66.5597041949443	-44.5492200994422	-46.411916939744	
28829784	-6.12050616670197	-7.96852979722735	-11.7189674772121	5.78504641054411	-66.7532194836236	-3.20205959482225	-45.5312916340753	-32.2941693203271	
29229781	-6.13904927243123	-7.82714311359654	-11.7624324023812	5.879423340585	-64.3738314208889	-81.539454897667	-48.7990138723164	-60.7521357800114	
29629778	-6.1224573593431	-7.87310519253783	-11.7261041960663	5.80157101435395	-65.0767108261798	-161.076091395977	-45.2089017576561	-48.4270222148218	
30029775	-6.11766631742978	-7.93878771032246	-11.7569383253485	5.78956544467243	-63.6481142526518	41.5237313636242	-43.6730301051511	-34.1347405945526	
30429772	-6.15264017514291	-8.15510041332703	-11.6953432048506	5.80470654894785	-60.9229740027304	-1.56563495944694	-45.2941899389246	-40.7941176749135	
30829769	-6.12704959734532	-8.54564435643228	-11.6994846762685	6.20099763956671	-59.7939257911196	-38.1857045828441	-43.32573807213	-37.3844321321688	
31229766	-6.12568248011697	-8.45917548156282	-11.7053073876432	6.06802159277639	-65.0824277816403	-139.92011314164	-45.333627592352	-33.8831606681963	
31629763	-6.15139584577846	-8.54854370857301	-11.7149087341309	6.29520397181913	-59.0175227489033	139.974769363045	-43.5619067036228	-36.0615947536642	
32029760	-6.08975299291995	-8.52638829978474	-11.6821072014653	6.4899039481926	-70.4327775387429	-121.063466545117	-42.9276684073088	-34.503520366551	
32429757	-6.10343162196794	-8.69975303298731	-11.6831602890505	6.4344106767128	-64.3293809542655	-88.0432196772538	-43.8930115953377	-49.9856664891764	
32829754	-6.12015122698177	-8.93585367323355	-11.6674649429181	6.45991404187833	-65.6824481001255	-124.242944952168	-42.8529918191819	-35.8263741630899	
33229751	-6.14506272062956	-8.88931433640189	-11.6676896548521	6.39703070326108	-66.531771052197	-67.2890178638023	-41.2114042075025	-28.0676084724056	
33629748	-6.10514813091946	-8.79177078156987	-11.6463073309492	6.53565931401454	-62.3401194738598	161.04901035229	-43.5242144763412	-23.810563747095	
34029745	-6.09404150465439	-9.13824589540727	-11.6442961142202	6.53873964201289	-59.8196595433458	2.75452689663107	-42.6041678431151	-31.2609234794975	
34429742	-6.09948439086267	-9.03623499807502	-11.6156303324551	6.63250825128619	-60.6970017443696	124.867149608047	-42.7278981560207	-35.0659825166562	
34829739	-6.10228561916668	-9.23555529522134	-11.6443241450748	6.60811096429391	-66.0963486817498	-139.915002255667	-45.2142566977544	-28.7761915729258	
35229736	-6.0824502854868	-9.23974977674232	-11.6419681403963	6.84319550271307	-61.2576802776359	-41.7032077818325	-44.0820434480373	-46.607898674745	
35629733	-6.07809770729741	-9.26408424991055	-11.6368833836634	6.83193311817006	-58.6760708972565	-4.96376685592251	-43.6682264722985	-24.7375908739643	
36029730	-6.10710808140756	-9.42742051961687	-11.5834843290808	6.97192669276145	-59.5894034695672	47.6597405853886	-44.6281597285648	-23.7138579430297	
36429727	-6.07614294169679	-9.56991508997324	-11.6068011942403	7.02359758407031	-64.0668343955314	148.007482457042	-43.797480833652	-27.4345222592627	
36829724	-6.09138538963394	-9.63099151904833	-11.5940077008683	7.24357286622141	-63.9715281191142	-100.036633594612	-40.7478480054554	-14.2911204429079	
37229721	-6.09196937022839	-9.57585416175953	-11.5944929195676	7.08432960815349	-56.6730010394409	-47.033170974781	-44.7966100185759	-22.6351928801775	
37629718	-6.08894745522327	-9.80002958876379	-11.5898878716138	7.34491051048495	-66.8812708609257	147.548663293345	-41.9159479395114	-3.8088446754765	
38029715	-6.07678524088553	-10.1435061299905	-11.5592548500808	7.29408858758241	-57.1481009890352	-50.3607283610859	-41.6781741369554	-20.5682504831369	
38429712	-6.08128388158107	-9.81856245297804	-11.60289629607	7.41978652793505	-65.2809167251926	40.2161560954901	-42.5884520731096	-8.60595323185565	
38829709	-6.07470403156403	-10.0997764506126	-11.5263989153021	7.26441730623068	-62.0680641426071	103.138892639928	-43.2560514746258	-8.30329079189029	
39229706	-6.09479791874692	-10.1494120018833	-11.531659763324	7.53395774151093	-68.0280504413077	-165.698617997472	-40.5332760593477	-31.4938774685727	
39629703	-6.04124685309161	-10.1462856188787	-11.5571391141937	7.62768349092122	-72.410700612722	134.307509892408	-41.529193358548	-20.7710775293847	
40029700	-6.08554335883337	-10.2287986032973	-11.522230446977	7.48783816687723	-69.4437993199613	-139.647152266676	-42.0843406015153	-22.5758947206694	
40429697	-6.05352513324311	-10.4924971770126	-11.5053291870414	7.60839542379469	-65.6309007985733	158.697552856686	-41.7509834633697	-12.6439709367643	
40829694	-6.08344247345882	-10.4127050866468	-11.4755355430244	7.71575335395977	-65.3965358085678	76.5457790689522	-41.420413709436	-8.59520869958789	
41229691	-6.07675595850574	-10.4483879506952	-11.4756161232166	7.8319381648018	-69.629954638947	60.5308958409105	-40.2573516387405	-20.7275173678782	
41629688	-6.07575706125862	-10.3486174682296	-11.4753700042115	7.8741670727901	-58.0845576255825	7.05086331153087	-42.0774613176128	-21.5095144483813	
42029685	-6.02096752717207	-10.7605881278435	-11.4830275154086	7.94891838251614	-61.4434226696555	167.953353879364	-40.719286667785	-16.8436557043945	
42429682	-6.08366402720798	-10.698657314052	-11.4863522057945	7.87459690991127	-65.8301378136717	-170.567280918515	-41.5037875331535	-13.148840572019	
42829679	-6.05125981476009	-10.8813189758124	-11.4584786477545	8.17913809125416	-64.9528960163269	39.4583286369059	-39.93838158646	-11.648345936575	
43229676	-6.0360092116514	-10.9150941426752	-11.4730822526461	8.11115830915578	-59.0766737547554	-49.499045065994	-40.2139525800145	-11.3474186521624	
43629673	-6.04209056714149	-11.1772373553963	-11.4646475222037	7.94365689629056	-54.7269159615388	-18.0891523181837	-41.6417198743731	-11.1701568507394	
44029670	-6.06171467797795	-11.1718619938005	-11.4632712222209	8.17475085042986	-59.7593521454584	-60.3578646829296	-41.5594377571077	-11.7380354067386	
44429667	-6.0307010810174	-11.2095431309788	-11.4547700859975	8.23839803216398	-63.2611683295841	127.30850518449	-41.5078874269987	-3.14726219497125	
44829664	-6.04741962927232	-11.3616910289741	-11.4515068346747	8.30513324104929	-64.2217491503537	-23.5818193306647	-40.5462656669297	-3.48416173527117	
45229661	-6.01739353747948	-11.434620126335	-11.4153536249145	8.44733929040799	-64.3126780203892	-14.6468675859442	-40.1569687594188	-1.59147273829134	
45629658	-6.04882723977439	-11.5190747322901	-11.3665411191012	8.46669503570905	-64.2771994879514	146.758224522648	-40.5935501494278	-1.81433718924213	
46029655	-6.04366917083623	-11.5427956962736	-11.3890092997561	8.3739083530845	-62.1415390361842	21.6636124621408	-40.7677002475518	-3.52819132523415	
46429652	-6.04839689254383	-11.4266482691325	-11.3801405482627	8.7006192768415	-66.5089721102121	-24.3564968416849	-39.5875123590786	-0.942344909664375	
46829649	-6.01603065545736	-11.5398207011366	-11.377739131419	8.64584387541298	-63.2870139209866	59.6609874007823	-38.291672104978	-13.6380574467767	
47229646	-6.03363718343435	-11.8209449345688	-11.3456223360708	8.6865218268624	-66.0881022748291	-27.0135992997515	-39.0275535613983	0.618382954113316	
47629643	-6.0530117877085	-11.8290852916714	-11.3477439891898	8.56454757006138	-61.8900485517581	100.673055470487	-39.6090615098903	-10.9495334301701	
48029640	-6.03457669219924	-11.9641842805896	-11.3423810452593	8.64392062569575	-67.1382445747915	-107.109606813182	-39.8279949545614	-2.01361752129757	
48429637	-6.01734350784572	-11.8004580932341	-11.3132023539254	8.9454360797406	-54.7720338504433	-20.7916828065385	-40.5764673262017	1.5964971776691	
48829634	-6.04743673966989	-12.2369026941843	-11.3000644941794	8.86744013122101	-60.801904481954	49.8418155532332	-38.5094329342838	0.321839310552691	
49229631	-6.03022746826136	-12.0423857260595	-11.2782164203277	8.82216688606933	-69.0408462958736	130.754724162206	-40.0445856338371	5.27004956985101	
49629628	-6.02595105473721	-12.0323039602818	-11.3173057544182	9.14063513402709	-66.0397496249942	34.526645763462	-38.5624226098977	-4.32286983407355	
50029625	-6.03206550336877	-12.2169586767673	-11.2462023031303	9.24760811330065	-73.1471416618652	148.808118053337	-39.0507726285313	10.2288069391476	
50429622	-6.02931987000184	-12.185118983012	-11.2808283254983	9.14519612458041	-65.3514068645839	51.135820235331	-38.7265576070748	5.5224553554531	
50829619	-6.02660783604486	-12.3680621135705	-11.2757344305418	9.09943563713977	-68.5622406466026	-20.155388999789	-38.7819375085041	0.128270863849318	
