!Keysight Technologies N9917A: A.08.18
!Date: Saturday, 27 May 2023 16:33:45
!Timezone: (GMT-07:00) Mountain Time (US & Canada)
!Model: N9917A
!Serial: MY52401314
!GPS Latitude: 
!GPS Longitude: 
!GPS TimeStamp: 0001-01-01 00:00:00Z
!GPS Seconds Since Last Read: 0
!CHECKSUM:1666590423
!Correction: S11(ON U)S21(ON U)S12(ON U)S22(ON U)
!S2P File: Measurements:S11,S21,S12,S22:
# Hz S DB R 50
30000	-4.27946256090703	-18.8910509178172	-14.1408286801762	47.8306421353667	-57.0162179371894	177.530071065695	-8.48530111814545	-62.6931279555307	
429997	-6.23889956311692	-2.2338231528001	-11.935469389371	4.18257175209175	-60.331143429935	55.726393921631	-29.4573498445566	-94.5829305757399	
829994	-6.25733373840079	-1.69130069265099	-11.8864710636061	2.34164899637179	-61.7123543165715	-108.802113997709	-34.5994534130879	-99.610221525401	
1229991	-6.26551043861491	-1.60345186580607	-11.8510427833883	1.66143847189016	-68.9232546228433	-170.674096229701	-36.8813310452992	-98.0347743986095	
1629988	-6.26101919318116	-1.50669299492439	-11.8665589300553	1.41642888598817	-66.6314426371778	-131.095634104141	-39.0458018081733	-105.142796965547	
2029985	-6.27074897295601	-1.4592225358447	-11.8557865706973	1.13204362781345	-74.402381387812	24.577203037211	-39.7693013730351	-110.59467690183	
2429982	-6.26435789166291	-1.03930409558484	-11.8706662607985	1.53130679510587	-64.0427336439811	40.0622256591303	-43.8702423472632	-118.105701192764	
2829979	-6.24116606318811	-1.0402243483457	-11.9123338442398	1.17301750651967	-72.5334761848787	-44.8320834809178	-45.0152822689019	-109.108194664432	
3229976	-6.25061812751564	-1.29378734993612	-11.8594515113939	1.37046539769461	-67.0653338756665	95.9343269055441	-49.4098836583955	-106.413714376338	
3629973	-6.239936327986	-1.12041960556425	-11.8546296243912	1.27446541078589	-56.9295008390862	102.498240725227	-42.5977313485092	-154.586750050954	
4029970	-6.2805553274747	-1.33854677594778	-11.8907769713133	1.35343004741745	-65.0168199833052	113.766476215626	-47.7718991628563	-132.069767561336	
4429967	-6.2394960890338	-1.38925687964804	-11.8766251868188	1.60929437808307	-71.303687228433	-167.626052679616	-51.9585279322504	-100.492896904692	
4829964	-6.26007774178573	-1.47330156309906	-11.8495788954796	1.5335064552583	-60.959753516389	96.7223343538987	-44.7401715867705	-105.751198656232	
5229961	-6.27218057566602	-1.73338892833141	-11.8754367493498	1.73457024047391	-59.3321444817768	65.5495124606376	-48.6390532133172	-154.527950228991	
5629958	-6.24700155595979	-1.84109611768174	-11.8534681077463	1.40989160208149	-67.1017887822578	-76.5480690784549	-46.4937698355421	-138.244756328234	
6029955	-6.25930121668997	-1.80131584965641	-11.8515119613068	1.81315510839687	-63.3141827795381	-174.272599195977	-46.7572177678795	-134.737021289475	
6429952	-6.26903150418483	-2.07159435555586	-11.8276519602898	1.65579325886231	-67.8659377568513	149.233016988454	-50.385016044747	-123.569690589773	
6829949	-6.25929579332266	-2.07517956882613	-11.8516985422498	1.63861294005385	-60.2258050223535	-176.360660364545	-49.032906594048	-123.42315331605	
7229946	-6.24874274540011	-2.06985526032424	-11.8599012696492	1.66914117476332	-74.2264721938558	91.2386226069325	-47.4854212888876	-130.54309177334	
7629943	-6.27287558038133	-2.34276037367853	-11.8517661293845	1.87692241733137	-56.1768721594704	1.16037635798521	-52.0939749584349	-121.920340418687	
8029940	-6.23165364926249	-2.38947637331734	-11.8549814894757	1.615965714168	-64.8059820846968	-59.1121404834267	-48.0315019541276	-129.486500243818	
8429937	-6.24658101420719	-2.46131158554794	-11.8418098574516	2.01615952770286	-67.2610621392493	139.145714615428	-47.6633662343958	-115.218075256777	
8829934	-6.24601709361113	-2.46290838807691	-11.8099839143751	2.13446769591977	-67.50090408716	48.0369157961581	-45.8402684781626	-149.256622890047	
9229931	-6.23793387245204	-2.73481615205532	-11.8278582408439	2.1351116247277	-71.6598232265166	28.4281443898347	-48.9830102226705	-113.881509920352	
9629928	-6.23308328814538	-2.79263843056402	-11.8734362375479	2.31502083680536	-66.3140754120389	170.476481273774	-46.5794522852577	-110.812289731577	
10029925	-6.23654595657175	-2.9605829501473	-11.8474383769541	2.23206536438466	-61.0061248471196	-7.36857372066164	-46.4091795229522	-140.017572197429	
10429922	-6.22902249569035	-3.11386788465335	-11.8541768332351	2.33163037221048	-82.9006002241787	-147.305261119027	-49.972708349053	-127.820440457664	
10829919	-6.24125062768074	-2.99888506055136	-11.837732879949	2.50892968972471	-70.2955471633188	-8.95655595866	-51.8899234378276	-116.468852512872	
11229916	-6.23807686357775	-3.28610467267137	-11.821713153127	2.42714956073021	-68.9853698313097	-153.732695662214	-50.71875322693	-131.024358918762	
11629913	-6.22823739924277	-3.41131779344351	-11.8241688923879	2.46577326056227	-65.0984117284893	-27.0813401872054	-46.6823887875568	-126.477509932043	
12029910	-6.24287319882043	-3.41302729880372	-11.8254606959813	2.72189139851992	-76.6136316510451	163.390031472024	-47.5036578629649	-121.264567577881	
12429907	-6.25524163966074	-3.72547883262017	-11.8311767101879	2.54509604593769	-61.5510060001764	-30.0012793767569	-48.3891201908444	-107.499878825951	
12829904	-6.22910919096749	-3.60437289540637	-11.7898663905948	2.63324195144308	-63.6580209137225	-40.8342687697205	-47.9073211983675	-127.760868439101	
13229901	-6.24181888528566	-3.85297407907606	-11.7980328595403	2.56915070534652	-63.8958784925151	130.863031032512	-49.5576283301305	-146.86560807652	
13629898	-6.25887436066608	-3.86156681049833	-11.8019869645725	2.89765905185314	-71.3087436280079	-35.789869490181	-46.4401748206212	-117.518736567205	
14029895	-6.22819600353206	-4.02349838529399	-11.8204747407256	2.93527756798633	-57.1835604770462	-7.27618996374766	-47.1037183815567	-112.903578246543	
14429892	-6.2310469794194	-4.05962922304607	-11.7920405832328	3.00077080030982	-62.633981991568	175.974511670003	-50.3815405476267	-125.030326574468	
14829889	-6.21838157972371	-4.30965039824714	-11.7998487063259	3.10937890267976	-66.6940806107947	174.977022859947	-49.2664742026866	-108.381566267267	
15229886	-6.18915573152177	-4.47575863283292	-11.8249707848739	3.17941386332738	-68.6667940858017	98.4706569492725	-51.2464068066055	-126.509821444782	
15629883	-6.21779852944791	-4.39832052486814	-11.8137626279229	3.14166543854653	-71.5882508208015	89.3190262996165	-51.204800655816	-111.929550384701	
16029880	-6.20040713157715	-4.6885638186523	-11.765473903764	3.35633138356108	-59.597171245789	-46.2640285061374	-51.4811267777404	-127.881207675945	
16429877	-6.22903031058397	-4.57989278671633	-11.798987820907	3.34645005372346	-71.3087248173824	-172.737818611214	-52.9604756435541	-114.111374646246	
16829874	-6.22865292434476	-4.82588179498652	-11.8010568529817	3.67701170171032	-78.5348642128432	-35.2257962265905	-47.5774701859206	-88.9460430555323	
17229871	-6.19792561134516	-4.83210837837117	-11.7736297937156	3.73407585953809	-69.0589378534036	19.5554844715827	-47.3172254531318	-101.471796581554	
17629868	-6.20946175907285	-4.93098635450706	-11.7642496432985	3.64402335266353	-59.1409927178007	-13.8859262006196	-54.9266186921939	-91.8313456895274	
18029865	-6.20752380339413	-5.13415886349328	-11.783290452472	3.81283939085159	-66.2968314426162	99.8826060536064	-47.1502702820811	-115.278756507839	
18429862	-6.22479131677553	-5.03154011724685	-11.7789560757173	3.78058477869332	-62.8032645469952	-19.5878466806447	-53.4945469132529	-96.6070059221129	
18829859	-6.19850834189199	-5.3503453983052	-11.7543583575111	3.77127361293145	-66.7982552496897	11.8251706504632	-52.0603323085334	-105.064863525505	
19229856	-6.20647988560512	-5.61065426532985	-11.7787641135794	3.97662859282982	-70.3459609938415	167.525294655061	-56.1367761200024	-42.0147232850214	
19629853	-6.19782307340552	-5.50546415175351	-11.7422436539528	3.94324753683909	-57.7866834113136	-8.14098265611706	-49.9040893393401	-109.155276209388	
20029850	-6.22414463672205	-5.66405608800833	-11.7277410238209	4.16041440167519	-57.0270943048944	-4.24609713694062	-48.2158551287395	-80.9744254663935	
20429847	-6.18702692709168	-5.64950429626675	-11.7862926084342	4.27183875535137	-67.1563774484925	25.5954999721818	-45.5601809216303	-126.22213114115	
20829844	-6.19198010283277	-5.780735796337	-11.7594872737159	4.09414739305839	-66.4007942127181	-57.412421642535	-50.5027692847693	-85.8761511980128	
21229841	-6.21630983961116	-5.98760273049415	-11.7277787433133	4.11276653144445	-64.3939178113143	173.243568225928	-49.6378445933529	-111.916268415095	
21629838	-6.19551388172714	-6.02016528909156	-11.73365420211	4.35733358254987	-55.4318277458312	-93.1933433245355	-47.4466183882287	-57.6636994085635	
22029835	-6.1773821875588	-6.08708125181349	-11.7465033849218	4.25887110659905	-67.0198326616947	-49.0605056954183	-45.668835280607	-94.6976110264162	
22429832	-6.18673006240777	-6.21499894215261	-11.7073487652499	4.3727153363949	-63.1464116108462	-21.2625079051209	-47.7787371582384	-96.6897624797699	
22829829	-6.17297515260732	-6.27953766749331	-11.68801682893	4.53983175119548	-63.9656402093373	-67.3602411960528	-47.4376875792708	-90.5043937679123	
23229826	-6.18884186289239	-6.48328648820774	-11.7479796206657	4.6788955504318	-70.1000576497723	-21.320565609256	-46.8287946578136	-87.3133637793776	
23629823	-6.16973562904222	-6.57740503367273	-11.7072424444876	4.79944007324706	-63.191715247841	54.0343926120242	-47.0407671161373	-76.7207691883359	
24029820	-6.19300507953687	-6.88234165776262	-11.7055717211726	4.80142216995159	-58.6604970689748	3.84352246437536	-46.8364603628551	-60.8948640696733	
24429817	-6.16564638905175	-6.80726597199125	-11.6705531402509	4.87291814239629	-63.4957130807865	168.334306088665	-51.1727103958612	-32.4499612129806	
24829814	-6.15366618751806	-6.90677998116309	-11.6942855018485	5.10578591220507	-64.6324068383608	-67.3633779175734	-49.0919350817432	-74.4004791184603	
25229811	-6.18451274428186	-7.06863432412985	-11.6995194863096	5.23671469216831	-65.618421170377	-106.617599493694	-47.1077290742494	-77.5726550786662	
25629808	-6.14539598997561	-7.24008622566418	-11.6816270903915	5.13924819782878	-68.678780227648	-52.9939317738613	-47.3982686942104	-62.377841907413	
26029805	-6.15311117843901	-7.33212746016002	-11.6823491670614	4.99407671814689	-63.0137189813476	-27.6575711435892	-47.8650630329716	-75.4317073686588	
26429802	-6.18217148244987	-7.29139089610564	-11.7041252985356	5.18700065557364	-61.7401884276374	164.001711499663	-49.2951750022428	-72.8411270358219	
26829799	-6.13075636882839	-7.45447435617847	-11.657351888285	5.42387411116008	-65.715166454576	151.237677317402	-50.6569785649378	-47.5942562874179	
27229796	-6.14947822467506	-7.4108242910151	-11.6751517566615	5.43185285096339	-58.5900710733905	-33.4197895936581	-46.4932222366301	-59.4320140689058	
27629793	-6.15212395997179	-7.61178607019522	-11.6789415901047	5.44415224876774	-66.118070806765	-130.435132102573	-47.5518287039711	-81.5276297107021	
28029790	-6.12907395724271	-7.74071698705929	-11.6292486467295	5.56928952649162	-65.6399730983181	106.959580866369	-46.7930033106396	-58.5034036437556	
28429787	-6.14506204263447	-7.64921122291841	-11.6540163424059	5.82507454515566	-62.094299843871	-179.953469203677	-45.7525389006677	-49.4336735905102	
28829784	-6.10758442753967	-8.0010054493194	-11.6387913141855	5.34605138283326	-69.2420893784924	-159.648833090831	-51.3741137960396	-42.3850932255001	
29229781	-6.13590124207198	-7.93451302912014	-11.6369505316001	5.9571897157586	-76.3851144189653	-28.6265311921593	-46.8909016708165	-60.3894197061016	
29629778	-6.12978978159017	-8.0484022893846	-11.6431461134808	5.73232908586373	-59.2750434030741	94.5820759579449	-45.3593356058131	-54.5472363243631	
30029775	-6.1260162744139	-8.03469367751618	-11.6426742941975	5.70063682155668	-60.2152252765118	-52.0531913391817	-44.3436747153776	-46.3138917717188	
30429772	-6.13820506013123	-8.11741423752993	-11.5973820420918	5.91434168766663	-68.8474763449264	-29.301856354024	-50.0278729185858	-40.3967214093436	
30829769	-6.11580922126527	-8.55014315632499	-11.6069742404992	6.22258997892257	-86.2709444444661	6.44027074426486	-44.0113242851615	-40.438436717428	
31229766	-6.10075073459613	-8.40520110157317	-11.6277273810763	6.25705277158034	-66.7800589352455	127.673860000816	-48.5353972033189	-46.6279914171309	
31629763	-6.13352619692004	-8.66063719694061	-11.6068052820713	6.29145186846346	-58.9910962979721	166.196670038886	-44.1110611806477	-48.3972085704897	
32029760	-6.12375901559293	-8.48379750112459	-11.6173617323096	6.17692225002705	-73.8466388106326	47.0621381165693	-43.1617419202836	-41.8118880705865	
32429757	-6.09886787803728	-8.8313844669318	-11.5662121495537	6.21718123535968	-67.4164107683945	-138.421720860141	-44.3040081889305	-54.3940009474074	
32829754	-6.09770752545138	-8.91980402363074	-11.5685993147734	6.26080556743427	-62.0197973455761	-137.298183523395	-46.6282344039042	-39.5832301693957	
33229751	-6.12030577619485	-9.09519595282646	-11.5828123526141	6.49594279215005	-64.6606485837155	70.0031317517576	-42.8123355450544	-45.047278812206	
33629748	-6.10638856239574	-9.12166245315392	-11.5501018457166	6.5060069408749	-76.8051916837235	80.3392680437051	-43.1412963038991	-34.8224412273078	
34029745	-6.11307576060653	-9.30765052745184	-11.5940428201986	6.81334269906202	-58.4374072669957	-10.182523000597	-43.6759129167445	-28.0896713282013	
34429742	-6.07689491005301	-9.18366537113523	-11.5650171497726	6.54978401868337	-57.3525480315144	-10.2052786441756	-45.9534313219654	-40.1980858064533	
34829739	-6.10642099833958	-9.33379784059797	-11.5527168346021	6.6755101418532	-64.1568653496711	-43.344446793629	-46.4247481274173	-34.0364349232288	
35229736	-6.08827085764109	-9.42618153773356	-11.5489281285979	7.01563434987763	-61.3275277785107	21.2036553863645	-43.7877418376355	-47.4390372962786	
35629733	-6.07188794508907	-9.70238413869867	-11.5458037846448	6.73014759118479	-68.1912729921032	-150.888887729603	-45.2372076490989	-20.2892795181858	
36029730	-6.09561161831767	-9.45105904868115	-11.5500507961833	7.06844567967451	-64.6412745790773	-49.8135427506132	-45.1979741759989	-19.0433488267128	
36429727	-6.10723832388325	-9.68553730824659	-11.5238403217791	7.26939908066827	-64.0127796733112	-95.6126704078462	-44.5161891829916	-24.5588039410103	
36829724	-6.08826391443566	-9.78602503677274	-11.5185845744458	7.18068284426231	-67.9459478995931	-155.603231097391	-42.995581574438	-13.9548758343995	
37229721	-6.08954169841731	-9.89423586244298	-11.4627825060877	7.27973552308992	-66.3990453144933	-74.1562450373773	-43.7276213548856	-22.534225544717	
37629718	-6.06826172057827	-9.83876861323304	-11.4833668013249	7.33033402362808	-66.9034296031	80.4969476687673	-43.1176664894639	-3.85760815178051	
38029715	-6.08225192244289	-10.0413175478599	-11.5039519739487	7.41980704027553	-62.1924853333374	5.79413321260896	-41.6167941002792	-29.5420699518555	
38429712	-6.05849502916453	-9.93824627939091	-11.4935547528069	7.36976932140544	-72.3416145989784	17.9359137265844	-41.9631851942634	-17.1326504257048	
38829709	-6.09289486478123	-10.0979696737756	-11.4532164061398	7.55567071500879	-63.8907768469572	111.009884389425	-42.9357100274171	-24.035944933688	
39229706	-6.07860678297465	-10.4157870636648	-11.4521618696169	7.39599233384574	-55.9330608834837	175.654685048363	-41.7318394156234	-30.1546447232083	
39629703	-6.0428842836607	-10.2841829228758	-11.4605376286936	7.71074056432954	-72.6374905024968	-18.0366700125324	-41.9609277986415	-23.1561397462031	
40029700	-6.09625882391408	-10.4390381051881	-11.4578777666406	7.528396789218	-63.0666547522779	110.050022829116	-43.942855795362	-29.5824875199851	
40429697	-6.05199022644991	-10.5947444683466	-11.4749934974656	7.68578255417713	-58.4386521923294	104.726199795207	-43.5090582637783	-24.7145556896198	
40829694	-6.07422654503024	-10.4598703771582	-11.3970702944683	7.61586896801634	-68.8237468777863	112.461190920575	-41.7191218663249	-11.4840894350887	
41229691	-6.08528737079478	-10.6502135576445	-11.4078310553024	7.87275282462918	-63.3813338207833	40.4069606191777	-41.5012693039146	-11.6402213600516	
41629688	-6.05123823671257	-10.6905796829303	-11.4124964133397	7.72040631982585	-58.7213080868392	111.651582326083	-43.8482205809539	-18.917885793465	
42029685	-6.05465760180325	-10.881772816901	-11.4029753302273	8.12418030696256	-59.1525225021412	-41.0804450422889	-41.0892322431973	-19.0930827454691	
42429682	-6.04728394567277	-10.7824080582681	-11.3543009310636	8.05758391016692	-65.2359821350598	21.1865910398944	-43.0975396564442	-11.1209373906675	
42829679	-6.0716054315789	-10.9200807405825	-11.368016477811	8.18736369560894	-56.9390816987776	-95.002551071819	-40.9977496206376	-11.4899637127538	
43229676	-6.03540173311335	-10.990712406187	-11.3737135566355	8.3650078861057	-72.5120547662414	132.936330443793	-40.7970979577246	-9.17388493831353	
43629673	-6.05150802814929	-11.2282445801079	-11.3509325426578	8.21690942305344	-64.9476434217552	-174.359884314955	-43.1484192432143	-16.4083284150295	
44029670	-6.04683690702827	-11.0751715074659	-11.3780457364529	8.14893987895574	-66.1583405282378	56.436749579923	-41.619577872712	0.511130407946312	
44429667	-6.03490949389086	-11.2157776534756	-11.3631437451532	8.47554832701354	-63.8167238304123	170.074838091626	-41.8903246666622	-4.81839078867519	
44829664	-6.06326860213504	-11.5381564891125	-11.364890759398	8.43708748344969	-65.6531428617104	-25.7095321004874	-42.0615848796239	-12.0029265532401	
45229661	-6.04643155741933	-11.6267373028952	-11.2945640181906	8.63984725517114	-62.1960640170224	151.689441332544	-41.0882545600139	-2.51629373954346	
45629658	-6.06140645233857	-11.7677065997856	-11.3184592839377	8.47547772302162	-66.2352401078219	67.1161572231771	-42.4681525438557	-2.17807605869368	
46029655	-6.01966399446169	-11.5478928603796	-11.3005781194174	8.48155633828273	-73.0643083950009	131.6108954324	-41.3356994303112	0.739603465411988	
46429652	-6.04436217694482	-11.7403436949318	-11.260492607123	8.54785151522345	-62.400743750435	-99.3762923914099	-40.5361684937235	-8.70048758651544	
46829649	-6.04661572696237	-11.580771385411	-11.2714623780707	8.66256789807014	-58.6016965929253	-137.48365204656	-40.0108651488751	-8.0681433044056	
47229646	-6.02799987146533	-11.8503015776828	-11.2526026478884	8.59449548878709	-68.1619255699226	-137.377411239816	-39.4873563892575	-2.38934479236716	
47629643	-6.03904747867749	-11.9237169682745	-11.2534732718444	8.72437513756839	-60.3419731990041	-7.44963058077538	-40.1102148028932	-3.42680166775264	
48029640	-6.03689347964115	-11.9925788709024	-11.2665677781829	8.89101706350498	-60.3614692913573	-149.875582353523	-39.5407543941395	9.33597420476762	
48429637	-6.01816124702897	-12.1384654085598	-11.1849791047308	8.89953484211776	-62.5948260977003	-105.60918709029	-40.8765997200555	6.46241996780927	
48829634	-6.03065402449293	-12.2309066986159	-11.2285858070911	8.94042228006957	-68.5418167153482	15.24855657616	-39.7173042686927	5.16280187145237	
49229631	-6.03719422430191	-12.2250480323382	-11.2364594463642	9.24432436121354	-62.6766633132421	-146.184716872027	-40.471174060668	3.37490494403993	
49629628	-6.03302964197419	-12.3664227400733	-11.2079038852399	9.07332950771515	-56.8202523247095	-149.1392641995	-38.741713428684	3.72675382578433	
50029625	-6.04008790307157	-12.2907395688527	-11.1915425445298	9.24591593891513	-64.5378753889477	-107.971510118754	-40.2679069932075	4.5657028287114	
50429622	-6.00354793367814	-12.2327287351336	-11.1512895460921	9.2227578808451	-64.8313554683282	108.56115909307	-39.8841963686608	5.87635349625283	
50829619	-6.02557992435145	-12.5620106103214	-11.1488988032807	9.36163306844187	-73.5096836906012	76.1165205249438	-38.8498244790461	3.60053105902979	
